# HZ S RI R 50
1.00000000000000000000e+09 -9.80710605771547339060e-01 +1.95465355819101765933e-01 +9.57923040231001455972e-06 +4.80619842391346986199e-05 +9.57923040231001455972e-06 +4.80619842391346986199e-05 -9.80710605771547339060e-01 +1.95465355819101765933e-01
1.04500000000000000000e+09 -9.78880267386821323328e-01 +2.04434386424487635203e-01 +1.25489219116246239109e-05 +6.00872106259126012649e-05 +1.25489219116246239109e-05 +6.00872106259126012649e-05 -9.78880267386821323328e-01 +2.04434386424487635203e-01
1.09000000000000000000e+09 -9.76959039486574365441e-01 +2.13426871222935438110e-01 +1.62617526123439660383e-05 +7.44379848774005868726e-05 +1.62617526123439660383e-05 +7.44379848774005868726e-05 -9.76959039486574365441e-01 +2.13426871222935438110e-01
1.13500000000000000000e+09 -9.74945474762582309225e-01 +2.22443953485435913509e-01 +2.08644033683502456034e-05 +9.14462062414572263245e-05 +2.08644033683502456034e-05 +9.14462062414572263245e-05 -9.74945474762582309225e-01 +2.22443953485435941264e-01
1.18000000000000000000e+09 -9.72838039368598250789e-01 +2.31486794497696934947e-01 +2.65258441025909904459e-05 +1.11476554096129074696e-04 +2.65258441025909904459e-05 +1.11476554096129074696e-04 -9.72838039368598250789e-01 +2.31486794497696934947e-01
1.22500000000000000000e+09 -9.70635109149991071043e-01 +2.40556574554572549784e-01 +3.34399207454875673873e-05 +1.34928597078936565127e-04 +3.34399207454875673873e-05 +1.34928597078936565127e-04 -9.70635109149990960020e-01 +2.40556574554572522029e-01
1.27000000000000000000e+09 -9.68334965577859474450e-01 +2.49654493987659570342e-01 +4.18281876468712198553e-05 +1.62239004787232164251e-04 +4.18281876468712198553e-05 +1.62239004787232164251e-04 -9.68334965577859474450e-01 +2.49654493987659542586e-01
1.31500000000000000000e+09 -9.65935791364279427995e-01 +2.58781774227693439627e-01 +5.19430088755720511542e-05 +1.93883868111675671106e-04 +5.19430088755720511542e-05 +1.93883868111675671106e-04 -9.65935791364279539017e-01 +2.58781774227693439627e-01
1.36000000000000000000e+09 -9.63435665732913504300e-01 +2.67939658903311672677e-01 +6.40709543671961394371e-05 +2.30381134422425382004e-04 +6.40709543671961394371e-05 +2.30381134422425382004e-04 -9.63435665732913504300e-01 +2.67939658903311728189e-01
1.40500000000000000000e+09 -9.60832559316443512998e-01 +2.77129414977661359121e-01 +7.85365197085371324502e-05 +2.72293163962556209173e-04 +7.85365197085371324502e-05 +2.72293163962556209173e-04 -9.60832559316443512998e-01 +2.77129414977661359121e-01
1.45000000000000000000e+09 -9.58124328649269108027e-01 +2.86352333924192958836e-01 +9.57062015038469146794e-05 +3.20229413906998031016e-04 +9.57062015038469146794e-05 +3.20229413906998031016e-04 -9.58124328649269108027e-01 +2.86352333924192958836e-01
1.49500000000000000000e+09 -9.55308710220502232957e-01 +2.95609732942789416033e-01 +1.15992963796950055138e-04 +3.74849256607401738316e-04 +1.15992963796950055138e-04 +3.74849256607401738316e-04 -9.55308710220502121935e-01 +2.95609732942789416033e-01
1.54000000000000000000e+09 -9.52383314048469875601e-01 +3.04902956217125431504e-01 +1.39861134972628256383e-04 +4.36864938550998878862e-04 +1.39861134972628256383e-04 +4.36864938550998878862e-04 -9.52383314048469875601e-01 +3.04902956217125431504e-01
1.58500000000000000000e+09 -9.49345616733679342758e-01 +3.14233376213810311484e-01 +1.67831778986878379402e-04 +5.07044686498861561091e-04 +1.67831778986878379402e-04 +5.07044686498861561091e-04 -9.49345616733679342758e-01 +3.14233376213810255972e-01
1.63000000000000000000e+09 -9.46192953942413650381e-01 +3.23602395023421252063e-01 +2.00488589742236187913e-04 +5.86215967116756535120e-04 +2.00488589742236187913e-04 +5.86215967116756535120e-04 -9.46192953942413650381e-01 +3.23602395023421252063e-01
1.67500000000000000000e+09 -9.42922512267730161817e-01 +3.33011445742972866935e-01 +2.38484363004810688298e-04 +6.75268906146331390934e-04 +2.38484363004810688298e-04 +6.75268906146331390934e-04 -9.42922512267730161817e-01 +3.33011445742972866935e-01
1.72000000000000000000e+09 -9.39531320408591552606e-01 +3.42461993898632133249e-01 +2.82548106537879734068e-04 +7.75159872756728848646e-04 +2.82548106537879734068e-04 +7.75159872756728848646e-04 -9.39531320408591552606e-01 +3.42461993898632188760e-01
1.76500000000000000000e+09 -9.36016239601031974082e-01 +3.51955538906586373749e-01 +3.33492856199082510302e-04 +8.86915234131667451489e-04 +3.33492856199082510302e-04 +8.86915234131667451489e-04 -9.36016239601031863060e-01 +3.51955538906586373749e-01
1.81000000000000000000e+09 -9.32373953227547569433e-01 +3.61493615568802439952e-01 +3.92224273725990107021e-04 +1.01163528454101584418e-03 +3.92224273725990107021e-04 +1.01163528454101584418e-03 -9.32373953227547569433e-01 +3.61493615568802495464e-01
1.85500000000000000000e+09 -9.28600955522209781101e-01 +3.71077795599003223970e-01 +4.59750110945168831249e-04 +1.15049835206649858285e-03 +4.59750110945168831249e-04 +1.15049835206649858285e-03 -9.28600955522209781101e-01 +3.71077795599003279481e-01
1.90000000000000000000e+09 -9.24693539279133336350e-01 +3.80709689172373189070e-01 +5.37190635330849017987e-04 +1.30476508473306241145e-03 +5.37190635330849017987e-04 +1.30476508473306241145e-03 -9.24693539279133336350e-01 +3.80709689172373189070e-01
1.94500000000000000000e+09 -9.20647782460757180267e-01 +3.90390946490304646677e-01 +6.25790123381043863343e-04 +1.47578291596192775169e-03 +6.25790123381043863343e-04 +1.47578291596192775169e-03 -9.20647782460757180267e-01 +3.90390946490304646677e-01
1.99000000000000000000e+09 -9.16459533589740082959e-01 +4.00123259348744986230e-01 +7.26929541367909775804e-04 +1.66499070691108921709e-03 +7.26929541367909775804e-04 +1.66499070691108921709e-03 -9.16459533589740082959e-01 +4.00123259348744986230e-01
2.03500000000000000000e+09 -9.12124395793819875422e-01 +4.09908362695305450440e-01 +8.42140547884338169261e-04 +1.87392356028474068967e-03 +8.42140547884338169261e-04 +1.87392356028474068967e-03 -9.12124395793819764400e-01 +4.09908362695305505952e-01
2.08000000000000000000e+09 -9.07637709356612365497e-01 +4.19748036156127157792e-01 +9.73120969513328404679e-04 +2.10421779642928777690e-03 +9.73120969513328404679e-04 +2.10421779642928777690e-03 -9.07637709356612365497e-01 +4.19748036156127157792e-01
2.12500000000000000000e+09 -9.02994532608590083633e-01 +4.29644105508330542698e-01 +1.12175192019875772861e-03 +2.35761607780983657723e-03 +1.12175192019875772861e-03 +2.35761607780983657723e-03 -9.02994532608590083633e-01 +4.29644105508330542698e-01
2.17000000000000000000e+09 -8.98189620971133750871e-01 +4.39598444067547389214e-01 +1.29011675685144740558e-03 +2.63597266205712384840e-03 +1.29011675685144740558e-03 +2.63597266205712384840e-03 -8.98189620971133750871e-01 +4.39598444067547389214e-01
2.21500000000000000000e+09 -8.93217403942122123439e-01 +4.49612973952228656138e-01 +1.48052208879907265353e-03 +2.94125875641786712483e-03 +1.48052208879907265353e-03 +2.94125875641786712483e-03 -8.93217403942122123439e-01 +4.49612973952228711649e-01
2.26000000000000000000e+09 -8.88071959783547915102e-01 +4.59689667176823857364e-01 +1.69552108736507650862e-03 +3.27556793729592409664e-03 +1.69552108736507650862e-03 +3.27556793729592409664e-03 -8.88071959783547915102e-01 +4.59689667176823801853e-01
2.30500000000000000000e+09 -8.82746987639603686304e-01 +4.69830546514136582203e-01 +1.93793937470491603459e-03 +3.64112158722201513864e-03 +1.93793937470491603459e-03 +3.64112158722201513864e-03 -8.82746987639603686304e-01 +4.69830546514136582203e-01
2.35000000000000000000e+09 -8.77235776776839171198e-01 +4.80037686052632917022e-01 +2.21090380869554820054e-03 +4.04027428752180926136e-03 +2.21090380869554820054e-03 +4.04027428752180926136e-03 -8.77235776776839171198e-01 +4.80037686052632917022e-01
2.39500000000000000000e+09 -8.71531172595651604240e-01 +4.90313211356605382907e-01 +2.51787452393503752290e-03 +4.47551908752836374861e-03 +2.51787452393503752290e-03 +4.47551908752836374861e-03 -8.71531172595651604240e-01 +4.90313211356605382907e-01
2.44000000000000000000e+09 -8.65625539013636591257e-01 +5.00659299115088995968e-01 +2.86268063866080115301e-03 +4.94949254961309266510e-03 +2.86268063866080115301e-03 +4.94949254961309266510e-03 -8.65625539013636591257e-01 +5.00659299115089106991e-01
2.48500000000000000000e+09 -8.59510716765097937397e-01 +5.11078176138279438590e-01 +3.24956009468993500811e-03 +5.46497944260195163413e-03 +3.24956009468993500811e-03 +5.46497944260195163413e-03 -8.59510716765097937397e-01 +5.11078176138279438590e-01
2.53000000000000000000e+09 -8.53177977096142070579e-01 +5.21572117526708400881e-01 +3.68320416354839729953e-03 +6.02491692307037963322e-03 +3.68320416354839729953e-03 +6.02491692307037963322e-03 -8.53177977096142181601e-01 +5.21572117526708289859e-01
2.57500000000000000000e+09 -8.46617970259794350163e-01 +5.32143443797073012469e-01 +4.16880722822710221565e-03 +6.63239800303144950988e-03 +4.16880722822710221565e-03 +6.63239800303144950988e-03 -8.46617970259794461185e-01 +5.32143443797072901447e-01
2.62000000000000000000e+09 -8.39820668128789082907e-01 +5.42794516697406526085e-01 +4.71212253815752636632e-03 +7.29067405171721950874e-03 +4.71212253815752636632e-03 +7.29067405171721950874e-03 -8.39820668128788971885e-01 +5.42794516697406637107e-01
2.66500000000000000000e+09 -8.32775300143184238344e-01 +5.53527733380888564696e-01 +5.31952473700017525182e-03 +8.00315601608005133816e-03 +5.31952473700017525182e-03 +8.00315601608005133816e-03 -8.32775300143184238344e-01 +5.53527733380888564696e-01
2.71000000000000000000e+09 -8.25470281693447494042e-01 +5.64345518528905909506e-01 +5.99808008096746995974e-03 +8.77341396625702998890e-03 +5.99808008096746995974e-03 +8.77341396625702998890e-03 -8.25470281693447383020e-01 +5.64345518528905909506e-01
2.75500000000000000000e+09 -8.17893133904465718942e-01 +5.75250313916181643670e-01 +6.75562540231875938157e-03 +9.60517447469342970645e-03 +6.75562540231875938157e-03 +9.60517447469342970645e-03 -8.17893133904465718942e-01 +5.75250313916181754692e-01
2.80000000000000000000e+09 -8.10030393629031064684e-01 +5.86244564789036193275e-01 +7.60085703144936300490e-03 +1.05023152160370197850e-02 +7.60085703144936300490e-03 +1.05023152160370197850e-02 -8.10030393629031064684e-01 +5.86244564789036193275e-01
2.84500000000000000000e+09 -8.01867512277156246903e-01 +5.97330702275907121646e-01 +8.54343107520297816160e-03 +1.14688560231079612201e-02 +8.54343107520297816160e-03 +1.14688560231079612201e-02 -8.01867512277156135880e-01 +5.97330702275907121646e-01
2.89000000000000000000e+09 -7.93388741896019600297e-01 +6.08511120859356879897e-01 +9.59407666274898762726e-03 +1.25089454443539863787e-02 +9.59407666274898762726e-03 +1.25089454443539863787e-02 -7.93388741896019711319e-01 +6.08511120859356879897e-01
2.93500000000000000000e+09 -7.84577006669803234118e-01 +6.19788149700842838641e-01 +1.07647240182207806075e-02 +1.36268416101836889465e-02 +1.07647240182207806075e-02 +1.36268416101836889465e-02 -7.84577006669803234118e-01 +6.19788149700842838641e-01
2.98000000000000000000e+09 -7.75413757723951935219e-01 +6.31164016310756914585e-01 +1.20686495065215251138e-02 +1.48268859166039851383e-02 +1.20686495065215251138e-02 +1.48268859166039851383e-02 -7.75413757723951935219e-01 +6.31164016310756914585e-01
3.02500000000000000000e+09 -7.65878808788694076526e-01 +6.42640800680197132877e-01 +1.35206401310310492941e-02 +1.61134676582226459007e-02 +1.35206401310310492941e-02 +1.61134676582226459007e-02 -7.65878808788694076526e-01 +6.42640800680197132877e-01
3.07000000000000000000e+09 -7.55950149895839640379e-01 +6.54220377516521289785e-01 +1.51371803455974205527e-02 +1.74909772677720037892e-02 +1.51371803455974205527e-02 +1.74909772677720037892e-02 -7.55950149895839751402e-01 +6.54220377516521400807e-01
3.11500000000000000000e+09 -7.45603735844451276371e-01 +6.65904343624680761238e-01 +1.69366644846059045959e-02 +1.89637452186130379961e-02 +1.69366644846059045959e-02 +1.89637452186130379961e-02 -7.45603735844451276371e-01 +6.65904343624680872260e-01
3.16000000000000000000e+09 -7.34813245668739734029e-01 +6.77693926715510985836e-01 +1.89396386203510257162e-02 +2.05359628849904156389e-02 +1.89396386203510257162e-02 +2.05359628849904156389e-02 -7.34813245668739734029e-01 +6.77693926715511096859e-01
3.20500000000000000000e+09 -7.23549808770072577779e-01 +6.89589870954968597871e-01 +2.11690762317640474022e-02 +2.22115806865327176933e-02 +2.11690762317640474022e-02 +2.22115806865327176933e-02 -7.23549808770072577779e-01 +6.89589870954968597871e-01
3.25000000000000000000e+09 -7.11781692730988901907e-01 +7.01592293335596584036e-01 +2.36506927160937407972e-02 +2.39941776094585064449e-02 +2.36506927160937407972e-02 +2.39941776094585064449e-02 -7.11781692730989012929e-01 +7.01592293335596695059e-01
3.29500000000000000000e+09 -6.99473947113255167807e-01 +7.13700503376423989188e-01 +2.64133044947544096126e-02 +2.58867946202158173696e-02 +2.64133044947544096126e-02 +2.58867946202158173696e-02 -6.99473947113255278829e-01 +7.13700503376423989188e-01
3.34000000000000000000e+09 -6.86587996761845564819e-01 +7.25912776639784040889e-01 +2.94892392486231051663e-02 +2.78917224676290681495e-02 +2.94892392486231051663e-02 +2.78917224676290681495e-02 -6.86587996761845453797e-01 +7.25912776639784040889e-01
3.38500000000000000000e+09 -6.73081177311678380271e-01 +7.38226069962640729649e-01 +3.29148046472458044587e-02 +3.00102317763896314640e-02 +3.29148046472458044587e-02 +3.00102317763896314640e-02 -6.73081177311678380271e-01 +7.38226069962640840671e-01
3.43000000000000000000e+09 -6.58906204762332858849e-01 +7.50635662965397187918e-01 +3.67308237722905606137e-02 +3.22422299974171391868e-02 +3.67308237722905606137e-02 +3.22422299974171391868e-02 -6.58906204762332747826e-01 +7.50635662965396965873e-01
3.47500000000000000000e+09 -6.44010570216724587134e-01 +7.63134706100670134887e-01 +4.09832462093008206838e-02 +3.45858254769275882956e-02 +4.09832462093008206838e-02 +3.45858254769275882956e-02 -6.44010570216724587134e-01 +7.63134706100670245910e-01
3.52000000000000000000e+09 -6.28335850289523434320e-01 +7.75713649948520100885e-01 +4.57238443765727656243e-02 +3.70367733464098680685e-02 +4.57238443765727656243e-02 +3.70367733464098680685e-02 -6.28335850289523434320e-01 +7.75713649948520211908e-01
3.56500000000000000000e+09 -6.11816923471488416375e-01 +7.88359523277341822656e-01 +5.10110048843242167016e-02 +3.95877707442076828825e-02 +5.10110048843242167016e-02 +3.95877707442076828825e-02 -6.11816923471488416375e-01 +7.88359523277341933678e-01
3.61000000000000000000e+09 -5.94381083193898152039e-01 +8.01055018085426562280e-01 +5.69106242641416390504e-02 +4.22275595703889700117e-02 +5.69106242641416390504e-02 +4.22275595703889700117e-02 -5.94381083193898152039e-01 +8.01055018085426562280e-01
3.65500000000000000000e+09 -5.75947039957873219151e-01 +8.13777327794978910802e-01 +6.34971167929598845348e-02 +4.49397829279142638215e-02 +6.34971167929598845348e-02 +4.49397829279142638215e-02 -5.75947039957873219151e-01 +8.13777327794978799780e-01
3.70000000000000000000e+09 -5.56423808434232891607e-01 +8.26496669201409517314e-01 +7.08545385999104215813e-02 +4.77015258279339174341e-02 +7.08545385999104215813e-02 +4.77015258279339174341e-02 -5.56423808434232891607e-01 +8.26496669201409517314e-01
3.74500000000000000000e+09 -5.35709482074077203428e-01 +8.39174398710565427884e-01 +7.90778256147183639113e-02 +5.04814506599552473287e-02 +7.90778256147183639113e-02 +5.04814506599552473287e-02 -5.35709482074077092406e-01 +8.39174398710565538906e-01
3.79000000000000000000e+09 -5.13689909303681746522e-01 +8.51760607654481027851e-01 +8.82741313877642430619e-02 +5.32374121777140427159e-02 +8.82741313877642430619e-02 +5.32374121777140427159e-02 -5.13689909303681746522e-01 +8.51760607654481027851e-01
3.83500000000000000000e+09 -4.90237304568657161763e-01 +8.64191048730998168104e-01 +9.85642316252315769942e-02 +5.59134039976328586774e-02 +9.85642316252315769942e-02 +5.59134039976328586774e-02 -4.90237304568657106252e-01 +8.64191048730998168104e-01
3.88000000000000000000e+09 -4.65208858531331093111e-01 +8.76383204499086687633e-01 +1.10083931248220662225e-01 +5.84356474835653894040e-02 +1.10083931248220662225e-01 +5.84356474835653894040e-02 -4.65208858531331093111e-01 +8.76383204499086909678e-01
3.92500000000000000000e+09 -4.38445460924280938642e-01 +8.88231258290426928248e-01 +1.22985360589863632064e-01 +6.07075833094923786315e-02 +1.22985360589863632064e-01 +6.07075833094923786315e-02 -4.38445460924280938642e-01 +8.88231258290426817226e-01
3.97000000000000000000e+09 -4.09770726336724899763e-01 +8.99599667714529260820e-01 +1.37437970574422918535e-01 +6.26034657967412672130e-02 +1.37437970574422918535e-01 +6.26034657967412672130e-02 -4.09770726336724899763e-01 +8.99599667714529260820e-01
4.01500000000000000000e+09 -3.78990631404154232342e-01 +9.10314973229713886305e-01 +1.53628918531845237716e-01 +6.39601924043367991990e-02 +1.53628918531845237716e-01 +6.39601924043367991990e-02 -3.78990631404154232342e-01 +9.10314973229713997327e-01
4.06000000000000000000e+09 -3.45894251428550791871e-01 +9.20155405833447459507e-01 +1.71762356746763822368e-01 +6.45669323180383530891e-02 +1.71762356746763822368e-01 +6.45669323180383530891e-02 -3.45894251428550458805e-01 +9.20155405833447459507e-01
4.10500000000000000000e+09 -3.10256353206615098639e-01 +9.28837804817853385231e-01 +1.92056867092511934780e-01 +6.41520649604646192588e-02 +1.92056867092511934780e-01 +6.41520649604646192588e-02 -3.10256353206615209661e-01 +9.28837804817853385231e-01
4.15000000000000000000e+09 -2.71842995660806385771e-01 +9.36001351870952569278e-01 +2.14739890283965284556e-01 +6.23669345626268745164e-02 +2.14739890283965284556e-01 +6.23669345626268745164e-02 -2.71842995660806441283e-01 +9.36001351870952458256e-01
4.19500000000000000000e+09 -2.30421855258254648646e-01 +9.41187735074931586254e-01 +2.40037432892178548283e-01 +5.87660341898118415704e-02 +2.40037432892178548283e-01 +5.87660341898118415704e-02 -2.30421855258254870691e-01 +9.41187735074931364210e-01
4.24000000000000000000e+09 -1.85779772906863954729e-01 +9.43817690435469702770e-01 +2.68156555557527986888e-01 +5.27835666779866777287e-02 +2.68156555557527986888e-01 +5.27835666779866777287e-02 -1.85779772906863815951e-01 +9.43817690435470035837e-01
4.28500000000000000000e+09 -1.37751031523455857997e-01 +9.43164626123904836774e-01 +2.99257133328856783638e-01 +4.37070874638448847449e-02 +2.99257133328856783638e-01 +4.37070874638448847449e-02 -1.37751031523456191064e-01 +9.43164626123904614730e-01
4.33000000000000000000e+09 -8.62610543391749140518e-02 +9.38327530772259721381e-01 +3.33408198180132675503e-01 +3.06504304277125348699e-02 +3.33408198180132675503e-01 +3.06504304277125348699e-02 -8.62610543391747475184e-02 +9.38327530772259721381e-01
4.37500000000000000000e+09 -3.13912969935979946356e-02 +9.28208060967207315706e-01 +3.70523090762126805497e-01 +1.25308116511938828774e-02 +3.70523090762126805497e-01 +1.25308116511938828774e-02 -3.13912969935978836133e-02 +9.28208060967207204683e-01
4.42000000000000000000e+09 +2.65285922521547867792e-02 +9.11501158077628992338e-01 +4.10267347157418194037e-01 -1.19405390444781538128e-02 +4.10267347157418194037e-01 -1.19405390444781538128e-02 +2.65285922521546480013e-02 +9.11501158077628881315e-01
4.46500000000000000000e+09 +8.67971801748451954328e-02 +8.86715198928302972270e-01 +4.51935156715739860811e-01 -4.42382145611265806262e-02 +4.51935156715739860811e-01 -4.42382145611265806262e-02 +8.67971801748451676772e-02 +8.86715198928302972270e-01
4.51000000000000000000e+09 +1.48188704764983525397e-01 +8.52246196647116316392e-01 +4.94296871682730565301e-01 -8.59484189805992254696e-02 +4.94296871682730565301e-01 -8.59484189805992254696e-02 +1.48188704764983358864e-01 +8.52246196647116205369e-01
