# HZ S RI R 50
1.00000000000000000000e+09 +7.06222230823976504510e-01 -5.91726662221517263340e-01 -3.21729832247528931043e-05 -3.86385098582097476520e-05 -3.21729832247528931043e-05 -3.86385098582097476520e-05 +7.06222230823976504510e-01 -5.91726662221517152318e-01
1.04500000000000000000e+09 -8.82279585156971579707e-01 -2.85216655282383324543e-01 -1.76173508905746199814e-05 +5.42176910114587528775e-05 -1.76173508905746199814e-05 +5.42176910114587528775e-05 -8.82279585156971579707e-01 -2.85216655282383158010e-01
1.09000000000000000000e+09 +1.71894144438441448530e-01 +9.04090109732240465590e-01 +7.40194575263874738474e-05 -1.44515610383397611775e-05 +7.40194575263874738474e-05 -1.44515610383397611775e-05 +1.71894144438441531797e-01 +9.04090109732240354568e-01
1.13500000000000000000e+09 +5.88370498097269600812e-01 -7.02547615234495603787e-01 -7.25779080631011190615e-05 -6.12700773835857465457e-05 -7.25779080631011190615e-05 -6.12700773835857465457e-05 +5.88370498097269489790e-01 -7.02547615234495825831e-01
1.18000000000000000000e+09 -9.11586541256977356262e-01 -1.41221754412676842039e-01 -1.62467416747935851677e-05 +1.04318863937184663272e-04 -1.62467416747935851677e-05 +1.04318863937184663272e-04 -9.11586541256977245240e-01 -1.41221754412676842039e-01
1.22500000000000000000e+09 +3.21917827941536116576e-01 +8.55729429923897111365e-01 +1.28925219853105884303e-04 -4.92400739409351511180e-05 +1.28925219853105884303e-04 -4.92400739409351511180e-05 +3.21917827941536005554e-01 +8.55729429923897111365e-01
1.27000000000000000000e+09 +4.54600091477238676951e-01 -7.90454505547347419103e-01 -1.44653513623436275320e-04 -8.41072583421192758978e-05 -1.44653513623436275320e-04 -8.41072583421192758978e-05 +4.54600091477238787974e-01 -7.90454505547347419103e-01
1.31500000000000000000e+09 -9.17803628865638265744e-01 +4.99111766128206100351e-03 +1.00494920761693643827e-06 +1.83772148016585684183e-04 +1.00494920761693643827e-06 +1.83772148016585684183e-04 -9.17803628865638487788e-01 +4.99111766128196212428e-03
1.36000000000000000000e+09 +4.62316421311279424078e-01 +7.82033084088517793653e-01 +2.04283227914211845070e-04 -1.22120262675731023044e-04 +2.04283227914211845070e-04 -1.22120262675731023044e-04 +4.62316421311279368567e-01 +7.82033084088518126720e-01
1.40500000000000000000e+09 +3.09301196077611917357e-01 -8.53396668315295037210e-01 -2.61751685190388431144e-04 -9.64845358453190912696e-05 -2.61751685190388431144e-04 -9.64845358453190912696e-05 +3.09301196077612028379e-01 -8.53396668315294926188e-01
1.45000000000000000000e+09 -9.00833836362146533894e-01 +1.50057267207269223741e-01 +5.03390949292931592159e-05 +3.00401949344852403721e-04 +5.03390949292931592159e-05 +3.00401949344852403721e-04 -9.00833836362146311849e-01 +1.50057267207269195985e-01
1.49500000000000000000e+09 +5.88598940500845935198e-01 +6.84622771237787253185e-01 +2.95502150373621707679e-04 -2.56404723240897137061e-04 +2.95502150373621707679e-04 -2.56404723240897137061e-04 +5.88598940500846268264e-01 +6.84622771237787031140e-01
1.54000000000000000000e+09 +1.57036905272089410968e-01 -8.90171230635707244616e-01 -4.37666607468751699822e-04 -7.99269520603940837253e-05 -4.37666607468751699822e-04 -7.99269520603940837253e-05 +1.57036905272089466479e-01 -8.90171230635707355638e-01
1.58500000000000000000e+09 -8.60984250420952279548e-01 +2.90591714250590438251e-01 +1.56092800359879346457e-04 +4.59468686493783951084e-04 +1.56092800359879346457e-04 +4.59468686493783951084e-04 -8.60984250420952168525e-01 +2.90591714250590382740e-01
1.63000000000000000000e+09 +6.96495675079811027430e-01 +5.66000348560330768244e-01 +3.87958560326249091588e-04 -4.81306445338669725356e-04 +3.87958560326249091588e-04 -4.81306445338669725356e-04 +6.96495675079811138453e-01 +5.66000348560330879266e-01
1.67500000000000000000e+09 +2.37491128028310787001e-03 -9.00393101872858925283e-01 -6.84264026388924214914e-04 -6.19177037974465119561e-06 -6.84264026388924214914e-04 -6.19177037974465119561e-06 +2.37491128028313736031e-03 -9.00393101872858925283e-01
1.72000000000000000000e+09 -7.98978996234655958197e-01 +4.23213162732482994777e-01 +3.52347620950084028206e-04 +6.60320404992915986966e-04 +3.52347620950084028206e-04 +6.60320404992915986966e-04 -7.98978996234655958197e-01 +4.23213162732483161310e-01
1.76500000000000000000e+09 +7.82157676785160238531e-01 +4.29527066012109437487e-01 +4.52236346490240861788e-04 -8.29755385348121413461e-04 +4.52236346490240861788e-04 -8.29755385348121413461e-04 +7.82157676785160238531e-01 +4.29527066012109437487e-01
1.81000000000000000000e+09 -1.50253730663340384632e-01 -8.84432770223811726140e-01 -1.00816392621476793104e-03 +1.64424517836718258549e-04 -1.00816392621476793104e-03 +1.64424517836718258549e-04 -1.50253730663340412388e-01 -8.84432770223811948185e-01
1.85500000000000000000e+09 -7.15979976055745814811e-01 +5.44572683212102837125e-01 +6.83979719193919186160e-04 +8.91622497385595393256e-04 +6.83979719193919186160e-04 +8.91622497385595393256e-04 -7.15979976055745925834e-01 +5.44572683212103059169e-01
1.90000000000000000000e+09 +8.42356827375887129428e-01 +2.79349763643271686853e-01 +4.39198250128903773613e-04 -1.33405462075032212044e-03 +4.39198250128903773613e-04 -1.33405462075032212044e-03 +8.42356827375887018405e-01 +2.79349763643271631341e-01
1.94500000000000000000e+09 -2.96664587957387648753e-01 -8.43333666699928263810e-01 -1.40636867810519988406e-03 +4.84326262664951296723e-04 -1.40636867810519988406e-03 +4.84326262664951296723e-04 -2.96664587957387704265e-01 -8.43333666699928263810e-01
1.99000000000000000000e+09 -6.13613950406634800494e-01 +6.51391422835032596339e-01 +1.20658196660848289830e-03 +1.12491636830627491153e-03 +1.20658196660848289830e-03 +1.12491636830627491153e-03 -6.13613950406634911516e-01 +6.51391422835032818384e-01
2.03500000000000000000e+09 +8.74669658142578243520e-01 +1.20272637402511081706e-01 +2.75615250684647190502e-04 -2.01901208660685248242e-03 +2.75615250684647190502e-04 -2.01901208660685248242e-03 +8.74669658142578132498e-01 +1.20272637402511123339e-01
2.08000000000000000000e+09 -4.32998200200286176287e-01 -7.78720240437091537622e-01 -1.86067836399756770561e-03 +1.01918014343734073673e-03 -1.86067836399756770561e-03 +1.01918014343734073673e-03 -4.32998200200286176287e-01 -7.78720240437091648644e-01
2.12500000000000000000e+09 -4.94003269215349261057e-01 +7.40511277199028650209e-01 +1.98443971453940264105e-03 +1.30634598295563180911e-03 +1.98443971453940264105e-03 +1.30634598295563180911e-03 -4.94003269215349316568e-01 +7.40511277199028983276e-01
2.17000000000000000000e+09 +8.77627435913745035378e-01 -4.24204052501423248267e-02 -1.38761875504522986559e-04 -2.89240565677625297708e-03 -1.38761875504522986559e-04 -2.89240565677625297708e-03 +8.77627435913744924356e-01 -4.24204052501422623767e-02
2.21500000000000000000e+09 -5.55769402772649412370e-01 -6.92706299311865336676e-01 -2.33066022295515869883e-03 +1.84748430293239155990e-03 -2.33066022295515869883e-03 +1.84748430293239155990e-03 -5.55769402772649412370e-01 -6.92706299311865447699e-01
2.26000000000000000000e+09 -3.59796272111009007855e-01 +8.08961854858311624206e-01 +3.08544144172039416785e-03 +1.34658449057129914021e-03 +3.08544144172039416785e-03 +1.34658449057129914021e-03 -3.59796272111009229899e-01 +8.08961854858311735228e-01
2.30500000000000000000e+09 +8.50817110620624816875e-01 -2.03181215186351293855e-01 -9.31747124329727525148e-04 -3.93289447826941813979e-03 -9.31747124329727525148e-04 -3.93289447826941813979e-03 +8.50817110620625149942e-01 -2.03181215186351432633e-01
2.35000000000000000000e+09 -6.61892253944252773046e-01 -5.87811072700658021617e-01 -2.74484964967605009692e-03 +3.05866783359421204325e-03 -2.74484964967605009692e-03 +3.05866783359421204325e-03 -6.61892253944252773046e-01 -5.87811072700658132639e-01
2.39500000000000000000e+09 -2.14192091961273062273e-01 +8.54046096080401384576e-01 +4.57147189392307501388e-03 +1.10933917027190506732e-03 +4.57147189392307501388e-03 +1.10933917027190506732e-03 -2.14192091961273117784e-01 +8.54046096080401273554e-01
2.44000000000000000000e+09 +7.94922488129250148781e-01 -3.56433621542294298834e-01 -2.25598601531271222495e-03 -5.07570431262307532327e-03 -2.25598601531271222495e-03 -5.07570431262307532327e-03 +7.94922488129250148781e-01 -3.56433621542294298834e-01
2.48500000000000000000e+09 -7.48686275434551795627e-01 -4.66888276815051850299e-01 -2.98977041121773531168e-03 +4.74897162874101524954e-03 -2.98977041121773531168e-03 +4.74897162874101524954e-03 -7.48686275434551795627e-01 -4.66888276815051961322e-01
2.53000000000000000000e+09 -6.09534539639653982768e-02 +8.73445455434393558392e-01 +6.48250672989052201256e-03 +3.99364721034759331039e-04 +6.48250672989052201256e-03 +3.99364721034759331039e-04 -6.09534539639654676657e-02 +8.73445455434393669414e-01
2.57500000000000000000e+09 +7.11701811748811419278e-01 -4.96810030718216555368e-01 -4.28215699970975298416e-03 -6.19650848654343215649e-03 -4.28215699970975298416e-03 -6.19650848654343215649e-03 +7.11701811748811419278e-01 -4.96810030718216499857e-01
2.62000000000000000000e+09 -8.13870032141934318659e-01 -3.33071538276267953282e-01 -2.89629461968210618825e-03 +7.01393428920791053849e-03 -2.89629461968210618825e-03 +7.01393428920791053849e-03 -8.13870032141934429681e-01 -3.33071538276268008794e-01
2.66500000000000000000e+09 +9.55996957758159099372e-02 +8.65343565253224311640e-01 +8.81236443685205761422e-03 -1.04827525936374834833e-03 +8.81236443685205761422e-03 -1.04827525936374834833e-03 +9.55996957758158405483e-02 +8.65343565253224089595e-01
2.71000000000000000000e+09 +6.03905692224470103113e-01 -6.19367637250248348479e-01 -7.18738147449193495730e-03 -7.09383654416615577754e-03 -7.18738147449193495730e-03 -7.09383654416615577754e-03 +6.03905692224470214136e-01 -6.19367637250248348479e-01
2.75500000000000000000e+09 -8.55547867701932363005e-01 -1.89738087661434767783e-01 -2.22285877231311046476e-03 +9.93565023764712146326e-03 -2.22285877231311046476e-03 +9.93565023764712146326e-03 -8.55547867701932251983e-01 -1.89738087661434767783e-01
2.80000000000000000000e+09 +2.50622937019364722122e-01 +8.28564829723954621166e-01 +1.14739530307574940510e-02 -3.57484464795939814105e-03 +1.14739530307574940510e-02 -3.57484464795939814105e-03 +2.50622937019364722122e-01 +8.28564829723954732188e-01
2.84500000000000000000e+09 +4.75146717268713547622e-01 -7.19766056697846656753e-01 -1.11379746441928346307e-02 -7.47004920765657366710e-03 -1.11379746441928346307e-02 -7.47004920765657366710e-03 +4.75146717268713436599e-01 -7.19766056697846545731e-01
2.89000000000000000000e+09 -8.72195141093736525661e-01 -4.04918339585869299646e-02 -6.35187735778111779716e-04 +1.35619639244178268045e-02 -6.35187735778111779716e-04 +1.35619639244178268045e-02 -8.72195141093736192595e-01 -4.04918339585869230257e-02
2.93500000000000000000e+09 +3.98812624467784704319e-01 +7.62721732069937985443e-01 +1.42519628207144928578e-02 -7.59615361841988519925e-03 +1.42519628207144928578e-02 -7.59615361841988519925e-03 +3.98812624467784593296e-01 +7.62721732069937985443e-01
2.98000000000000000000e+09 +3.29737989208848003564e-01 -7.94393166206374901073e-01 -1.62651130100085264396e-02 -6.91045723064081379716e-03 -1.62651130100085264396e-02 -6.91045723064081379716e-03 +3.29737989208848003564e-01 -7.94393166206374901073e-01
3.02500000000000000000e+09 -8.62646860782665614309e-01 +1.10833069049133731143e-01 +2.31739267272998471572e-03 +1.78732242649137888779e-02 +2.31739267272998471572e-03 +1.78732242649137888779e-02 -8.62646860782665614309e-01 +1.10833069049133772777e-01
3.07000000000000000000e+09 +5.34507199166768476317e-01 +6.68362353760199812136e-01 +1.67413772579228306570e-02 -1.35861676413962448318e-02 +1.67413772579228306570e-02 -1.35861676413962448318e-02 +5.34507199166768698362e-01 +6.68362353760199812136e-01
3.11500000000000000000e+09 +1.72521723439448326776e-01 -8.40432281518543433663e-01 -2.26307376527722162174e-02 -4.85963814534011526863e-03 -2.26307376527722162174e-02 -4.85963814534011526863e-03 +1.72521723439448354531e-01 -8.40432281518543655707e-01
3.16000000000000000000e+09 -8.26094559039552978064e-01 +2.60146014574196837721e-01 +7.22793735461290526301e-03 +2.27298403896491994780e-02 +7.22793735461290526301e-03 +2.27298403896491994780e-02 -8.26094559039552867041e-01 +2.60146014574196948743e-01
3.20500000000000000000e+09 +6.51823872187881958595e-01 +5.47108702118187406604e-01 +1.82709529963728349589e-02 -2.20373451959530834710e-02 +1.82709529963728349589e-02 -2.20373451959530834710e-02 +6.51823872187882069618e-01 +5.47108702118187517627e-01
3.25000000000000000000e+09 +8.71112509146607094657e-03 -8.55870382818525010649e-01 -3.01786244598177127996e-02 -5.93624242833069686032e-04 -3.01786244598177127996e-02 -5.93624242833069686032e-04 +8.71112509146614033551e-03 -8.55870382818524788604e-01
3.29500000000000000000e+09 -7.62097229576892298830e-01 +4.03046440635379810136e-01 +1.48567357204078057120e-02 +2.77901631126672155059e-02 +1.48567357204078057120e-02 +2.77901631126672155059e-02 -7.62097229576892187808e-01 +4.03046440635379754625e-01
3.34000000000000000000e+09 +7.44824286550735847889e-01 +4.01778440464013231193e-01 +1.78120306516329450497e-02 -3.33855083352277912101e-02 +1.78120306516329450497e-02 -3.33855083352277912101e-02 +7.44824286550735847889e-01 +4.01778440464013175681e-01
3.38500000000000000000e+09 -1.56229793607784495091e-01 -8.39453164226229398004e-01 -3.86612905974232090589e-02 +6.81318184994667008780e-03 -3.86612905974232090589e-02 +6.81318184994667008780e-03 -1.56229793607784439580e-01 -8.39453164226229286982e-01
3.43000000000000000000e+09 -6.70615498025161405060e-01 +5.34733690337547362681e-01 +2.61466172428692980589e-02 +3.23824173224786654446e-02 +2.61466172428692980589e-02 +3.23824173224786654446e-02 -6.70615498025161183016e-01 +5.34733690337547251659e-01
3.47500000000000000000e+09 +8.07696656998526441029e-01 +2.36489700875743807940e-01 +1.38750007189032704275e-02 -4.78813226582456216707e-02 +1.38750007189032704275e-02 -4.78813226582456216707e-02 +8.07696656998526552051e-01 +2.36489700875743613651e-01
3.52000000000000000000e+09 -3.16640781570354190588e-01 -7.90598425706690144388e-01 -4.75258967745795374293e-02 +1.85257768085012632098e-02 -4.75258967745795374293e-02 +1.85257768085012632098e-02 -3.16640781570354190588e-01 -7.90598425706690366432e-01
3.56500000000000000000e+09 -5.52086914074925938500e-01 +6.49862960303837056131e-01 +4.22094438511547431769e-02 +3.53055375697225587439e-02 +4.22094438511547431769e-02 +3.53055375697225587439e-02 -5.52086914074925938500e-01 +6.49862960303837167153e-01
3.61000000000000000000e+09 +8.34938018841897111599e-01 +5.67639644001148718777e-02 +4.39975247795886415664e-03 -6.53801459811492735597e-02 +4.39975247795886415664e-03 -6.53801459811492735597e-02 +8.34938018841897333644e-01 +5.67639644001147608554e-02
3.65500000000000000000e+09 -4.66618518511877133914e-01 -7.09286980780425513338e-01 -5.57289872793404819640e-02 +3.59846283408456063535e-02 -5.57289872793404819640e-02 +3.59846283408456063535e-02 -4.66618518511877189425e-01 -7.09286980780425513338e-01
3.70000000000000000000e+09 -4.07581310391129159054e-01 +7.42318042928098664746e-01 +6.42407064256886595199e-02 +3.45211436774584129461e-02 +6.42407064256886595199e-02 +3.45211436774584129461e-02 -4.07581310391129103543e-01 +7.42318042928098664746e-01
3.74500000000000000000e+09 +8.21524636051499945744e-01 -1.30329914226372384212e-01 -1.33432796020336759402e-02 -8.50025520008913654246e-02 -1.33432796020336759402e-02 -8.50025520008913654246e-02 +8.21524636051499834721e-01 -1.30329914226372439723e-01
3.79000000000000000000e+09 -5.99814019454642632923e-01 -5.95966664902423670647e-01 -6.14262798559353784267e-02 +6.09171036290878237240e-02 -6.14262798559353784267e-02 +6.09171036290878237240e-02 -5.99814019454642632923e-01 -5.95966664902423781669e-01
3.83500000000000000000e+09 -2.39124681548299133915e-01 +8.04857699775525126107e-01 +9.32661183679463906548e-02 +2.66851144175394572322e-02 +9.32661183679463906548e-02 +2.66851144175394572322e-02 -2.39124681548299217182e-01 +8.04857699775525237129e-01
3.88000000000000000000e+09 +7.63085636854293869469e-01 -3.15900235128736273094e-01 -4.27958147302873320728e-02 -1.04581930690599733680e-01 -4.27958147302873320728e-02 -1.04581930690599733680e-01 +7.63085636854293980491e-01 -3.15900235128736217582e-01
3.92500000000000000000e+09 -7.08983748344320652279e-01 -4.51548759690598100480e-01 -6.14432810248258173824e-02 +9.52558397904682829793e-02 -6.14432810248258173824e-02 +9.52558397904682829793e-02 -7.08983748344320652279e-01 -4.51548759690597989458e-01
3.97000000000000000000e+09 -5.03940907393044604246e-02 +8.28594140683078128617e-01 +1.29505796157712460559e-01 +6.47014034009800540620e-03 +1.29505796157712460559e-01 +6.47014034009800540620e-03 -5.03940907393042522577e-02 +8.28594140683078128617e-01
4.01500000000000000000e+09 +6.56180146110077688881e-01 -4.88663755022377632731e-01 -8.79704054877743502061e-02 -1.19756125301381105563e-01 -8.79704054877743502061e-02 -1.19756125301381105563e-01 +6.56180146110077688881e-01 -4.88663755022377743753e-01
4.06000000000000000000e+09 -7.85147785617992588492e-01 -2.77696860914861731739e-01 -5.03731780142555179980e-02 +1.40772116787376888603e-01 -5.03731780142555179980e-02 +1.40772116787376888603e-01 -7.85147785617992477469e-01 -2.77696860914861565206e-01
4.10500000000000000000e+09 +1.51763447205780416249e-01 +8.02356543000630861862e-01 +1.70886491229369136269e-01 -3.42717679018042786776e-02 +1.70886491229369136269e-01 -3.42717679018042786776e-02 +1.51763447205780332983e-01 +8.02356543000631083906e-01
4.15000000000000000000e+09 +4.99010280193759481193e-01 -6.33844610864587654220e-01 -1.52773593628229759078e-01 -1.22492867032613819700e-01 -1.52773593628229759078e-01 -1.22492867032613819700e-01 +4.99010280193759314660e-01 -6.33844610864587654220e-01
4.19500000000000000000e+09 -8.16175918905480801691e-01 -7.79348369249785316581e-02 -1.91139353435250194946e-02 +1.97902247312859658201e-01 -1.91139353435250194946e-02 +1.97902247312859658201e-01 -8.16175918905480801691e-01 -7.79348369249787259472e-02
4.24000000000000000000e+09 +3.54062745392005273626e-01 +7.12467268829207966974e-01 +2.09755528912518612872e-01 -1.06977454071602348651e-01 +2.09755528912518612872e-01 -1.06977454071602348651e-01 +3.54062745392005606693e-01 +7.12467268829208189018e-01
4.28500000000000000000e+09 +2.93479734016685644971e-01 -7.31367343150458704137e-01 -2.38877027361794558313e-01 -9.89102277388097111954e-02 -2.38877027361794558313e-01 -9.89102277388097111954e-02 +2.93479734016685755993e-01 -7.31367343150458593115e-01
4.33000000000000000000e+09 -7.84903870374378809238e-01 +1.39079729582482269912e-01 +4.70631080268674728551e-02 +2.62421522309387145189e-01 +4.70631080268674728551e-02 +2.62421522309387145189e-01 -7.84903870374379031283e-01 +1.39079729582482131134e-01
4.37500000000000000000e+09 +5.30403221115651413164e-01 +5.45197781094510225408e-01 +2.26412976534884236024e-01 -2.24194128007190796037e-01 +2.26412976534884236024e-01 -2.24194128007190796037e-01 +5.30403221115651524187e-01 +5.45197781094510003363e-01
4.42000000000000000000e+09 +5.06959781397372452605e-02 -7.54063015200728270493e-01 -3.40045618668799398687e-01 -2.71457485777690382678e-02 -3.40045618668799398687e-01 -2.71457485777690382678e-02 +5.06959781397373979162e-02 -7.54063015200727826404e-01
4.46500000000000000000e+09 -6.68796638164411483274e-01 +3.51206369754489822199e-01 +1.68906082566119553068e-01 +3.17052510821273225705e-01 +1.68906082566119553068e-01 +3.17052510821273225705e-01 -6.68796638164411261229e-01 +3.51206369754489877710e-01
4.51000000000000000000e+09 +6.33217767354567806493e-01 +2.98769605338800314787e-01 +1.80273891218463544472e-01 -3.87867068083116828259e-01 +1.80273891218463544472e-01 -3.87867068083116828259e-01 +6.33217767354567584448e-01 +2.98769605338800259275e-01
