# HZ S RI R 50
1.00000000000000000000e+09 -5.59159265028908447626e-02 +1.22496778087953193948e-02
1.04500000000000000000e+09 -6.52836733487416331911e-03 +1.47572760415297741382e-02
1.09000000000000000000e+09 -3.10930153098037398429e-02 -2.80940637261048453688e-02
1.13500000000000000000e+09 -5.38376780087968520583e-02 +1.55641232524111310792e-02
1.18000000000000000000e+09 -4.85560520712186027836e-03 +1.12161845855981833625e-02
1.22500000000000000000e+09 -3.49621260399926581108e-02 -2.75859065083870827473e-02
1.27000000000000000000e+09 -5.13395079050258384967e-02 +1.85464315160975001806e-02
1.31500000000000000000e+09 -3.69140460866390629491e-03 +7.49957506439213709981e-03
1.36000000000000000000e+09 -3.87033290572614263603e-02 -2.65578680403293909684e-02
1.40500000000000000000e+09 -4.84712545841002873104e-02 +2.11442563878973463498e-02
1.45000000000000000000e+09 -3.05304247856513777393e-03 +3.67855082132359208560e-03
1.49500000000000000000e+09 -4.22481894866876817041e-02 -2.50341612093644937109e-02
1.54000000000000000000e+09 -4.52895057377027954182e-02 +2.33124929023651068782e-02
1.58500000000000000000e+09 -2.94782135316407067904e-03 -1.74062311549737886666e-04
1.63000000000000000000e+09 -4.55323013458880376803e-02 -2.30480822004198171449e-02
1.67500000000000000000e+09 -4.18564748328613123185e-02 +2.50141702044379618530e-02
1.72000000000000000000e+09 -3.37294225810913506081e-03 -3.98519433567575201427e-03
1.76500000000000000000e+09 -4.84965253528401585292e-02 -2.06413133163855996854e-02
1.81000000000000000000e+09 -3.82387908028855583176e-02 +2.62211655407830965259e-02
1.85500000000000000000e+09 -4.31559069325071487100e-03 -7.68298367207002376456e-03
1.90000000000000000000e+09 -5.10880940402169692049e-02 -1.78630771022647606705e-02
1.94500000000000000000e+09 -3.45062154318271363529e-02 +2.69147361917055384650e-02
1.99000000000000000000e+09 -5.75322818580942252353e-03 -1.11981836589554011041e-02
2.03500000000000000000e+09 -5.32615743360176363552e-02 -1.47691588901841235754e-02
2.08000000000000000000e+09 -3.07303079481677232643e-02 +2.70858646851945203404e-02
2.12500000000000000000e+09 -7.65407925086392104674e-03 -1.44654996139376469666e-02
2.17000000000000000000e+09 -5.49796770277738433563e-02 -1.14208171026113462776e-02
2.21500000000000000000e+09 -2.69830593853562783480e-02 +2.67354134825302514056e-02
2.26000000000000000000e+09 -9.97780044664875465088e-03 -1.74248327008736589305e-02
2.30500000000000000000e+09 -5.62139034939220794129e-02 -7.88360226295290074383e-03
2.35000000000000000000e+09 -2.33355211357804681604e-02 +2.58740874285082952944e-02
2.39500000000000000000e+09 -1.26763150154418080540e-02 -2.00224079788459546903e-02
2.44000000000000000000e+09 -5.69450219265547619152e-02 -4.22610681520554833795e-03
2.48500000000000000000e+09 -1.98564531541307043305e-02 +2.45222050903095151186e-02
2.53000000000000000000e+09 -1.56947936345639971201e-02 -2.22117661685424482021e-02
2.57500000000000000000e+09 -5.71633675712033828553e-02 -5.18668620468701931786e-04
2.62000000000000000000e+09 -1.66110175885136879259e-02 +2.27092833658214532377e-02
2.66500000000000000000e+09 -1.89727592380832255081e-02 -2.39546015332725743818e-02
2.71000000000000000000e+09 -5.68689640530319895362e-02 +3.16794858039813219050e-03
2.75500000000000000000e+09 -1.36595432838543251464e-02 +2.04734432226565607471e-02
2.80000000000000000000e+09 -2.24452918158127290305e-02 -2.52214316169238027265e-02
2.84500000000000000000e+09 -5.60714655228936598164e-02 +6.76387434591184995986e-03
2.89000000000000000000e+09 -1.10563856328035892140e-02 +1.78606479752101351965e-02
2.93500000000000000000e+09 -2.60443076139403317804e-02 -2.59920882350752405210e-02
2.98000000000000000000e+09 -5.47899220690488131247e-02 +1.02014271620832572968e-02
3.02500000000000000000e+09 -8.84890466172982836923e-03 +1.49237889812424417979e-02
3.07000000000000000000e+09 -2.96998862775998961894e-02 -2.62560229310379658618e-02
3.11500000000000000000e+09 -5.30523735551937658528e-02 +1.34163638191084708812e-02
3.16000000000000000000e+09 -7.07658205941935625205e-03 +1.17216369150989919296e-02
3.20500000000000000000e+09 -3.33416191874810197149e-02 -2.60124239579932678423e-02
3.25000000000000000000e+09 -5.08952797297257952813e-02 +1.63490606188070285165e-02
3.29500000000000000000e+09 -5.77029512587229342913e-03 +8.31767973432383581067e-03
3.34000000000000000000e+09 -3.68999525245528037232e-02 -2.52701456215232503344e-02
3.38500000000000000000e+09 -4.83627970766887238518e-02 +1.89456055695860180188e-02
3.43000000000000000000e+09 -4.95176239874711709987e-03 +4.77887099316240838293e-03
3.47500000000000000000e+09 -4.03074994055563906592e-02 -2.40474544211459646814e-02
3.52000000000000000000e+09 -4.55059154168235280302e-02 +2.11587820975940379964e-02
3.56500000000000000000e+09 -4.63317208522351364763e-03 +1.17431417721516970915e-03
3.61000000000000000000e+09 -4.35002967103748638955e-02 -2.23715997904735848512e-02
3.65500000000000000000e+09 -4.23814696853955785727e-02 +2.29489264775674835228e-02
3.70000000000000000000e+09 -4.81700048412347925364e-03 -2.42608983733779131481e-03
3.74500000000000000000e+09 -4.64189839061133202591e-02 -2.02782202968622461692e-02
3.79000000000000000000e+09 -3.90510445738861400322e-02 +2.42846431692724656903e-02
3.83500000000000000000e+09 -5.49602343767591206003e-03 -5.95300431344902500341e-03
3.88000000000000000000e+09 -4.90098831934977496871e-02 -1.78105988837796401503e-02
3.92500000000000000000e+09 -3.55797917813287511990e-02 +2.51433645350493673032e-02
3.97000000000000000000e+09 -6.65351962412047415185e-03 -9.33899917934740211867e-03
4.01500000000000000000e+09 -5.12259625913987215462e-02 -1.50187830993054778628e-02
4.06000000000000000000e+09 -3.20351814281173430388e-02 +2.55117440035426065736e-02
4.10500000000000000000e+09 -8.26366031513653398477e-03 -1.25198471352180595861e-02
4.15000000000000000000e+09 -5.30276660712225011984e-02 -1.19585882424953215963e-02
4.19500000000000000000e+09 -2.84857106864140896541e-02 +2.53858746169936290438e-02
4.24000000000000000000e+09 -1.02920761977411956423e-02 -1.54357471641284223207e-02
4.28500000000000000000e+09 -5.43835974970862667810e-02 -8.69050297703460525311e-03
4.33000000000000000000e+09 -2.49995938209008894404e-02 +2.47713280253292963962e-02
4.37500000000000000000e+09 -1.26965881132106161999e-02 -1.80324511294285907970e-02
4.42000000000000000000e+09 -5.52710478705791818932e-02 -5.27851821780096243375e-03
4.46500000000000000000e+09 -2.16434585564934112156e-02 +2.36830123272326331652e-02
4.51000000000000000000e+09 -1.54280851976603683440e-02 -2.02622715530547739538e-02
4.55500000000000000000e+09 -5.56763581793911499496e-02 -1.78890100447723549883e-03
4.60000000000000000000e+09 -1.84810739454820960326e-02 +2.21448506499892228128e-02
4.64500000000000000000e+09 -1.84315310050910952100e-02 -2.20849515515266908716e-02
4.69000000000000000000e+09 -5.55951129740973604143e-02 +1.71106434684969348561e-03
4.73500000000000000000e+09 -1.55721346534928861693e-02 +2.01892859362994003813e-02
4.78000000000000000000e+09 -2.16470758189937773075e-02 -2.34683811626624772018e-02
4.82500000000000000000e+09 -5.50321626210632519616e-02 +5.15434526297132902112e-03
4.87000000000000000000e+09 -1.29711257918236899656e-02 +1.78566209856389421229e-02
4.91500000000000000000e+09 -2.50112515560425019423e-02 -2.43891478214775039857e-02
4.96000000000000000000e+09 -5.40014749812386951611e-02 +8.47541759610217007581e-03
5.00500000000000000000e+09 -1.07262910788351595315e-02 +1.51942062889883107435e-02
5.05000000000000000000e+09 -2.84582244557893826453e-02 -2.48329124312185248180e-02
5.09500000000000000000e+09 -5.25258200273929221069e-02 +1.16114878004483241397e-02
5.14000000000000000000e+09 -8.87872521897015154480e-03 +1.22554915018165955232e-02
5.18500000000000000000e+09 -3.19210801327499682500e-02 -2.47946062199695740902e-02
5.23000000000000000000e+09 -5.06362936199643565160e-02 +1.45036590619147774672e-02
5.27500000000000000000e+09 -7.46160896854014543678e-03 +9.09895942253474004913e-03
5.32000000000000000000e+09 -3.53331155215531600433e-02 -2.42784472766883474559e-02
5.36500000000000000000e+09 -4.83716892968127365471e-02 +1.70980207577331663749e-02
5.41000000000000000000e+09 -6.49960245704533923217e-03 +5.78696398677144060313e-03
5.45500000000000000000e+09 -3.86291127351048313443e-02 -2.32977792353006619985e-02
5.50000000000000000000e+09 -4.57777294741086859808e-02 +1.93466418319542983462e-02
5.54500000000000000000e+09 -6.00840901605009802822e-03 +2.38449596449783743010e-03
5.59000000000000000000e+09 -4.17465708301195115304e-02 -2.18747379472326863858e-02
5.63500000000000000000e+09 -4.29061698788515410996e-02 +2.12084501769549266248e-02
5.68000000000000000000e+09 -5.99451811708678894419e-03 -1.04209831742822322913e-03
5.72500000000000000000e+09 -4.46268728753108079310e-02 -2.00397550919579232886e-02
5.77000000000000000000e+09 -3.98137933064134919015e-02 +2.26499819132857313497e-02
5.81500000000000000000e+09 -6.45513213355697335061e-03 -4.42641886775703603807e-03
5.86000000000000000000e+09 -4.72163674812562383920e-02 -1.78309104774823541650e-02
5.90500000000000000000e+09 -3.65613108812504195022e-02 +2.36459865598337773407e-02
5.95000000000000000000e+09 -7.37827762783305196592e-03 -7.70330777778908265541e-03
5.99500000000000000000e+09 -4.94673460126592856589e-02 -1.52931472487142366967e-02
6.04000000000000000000e+09 -3.32121908514871888585e-02 +2.41798764773632074432e-02
6.08500000000000000000e+09 -8.74309783869048340321e-03 -1.08101123117548651720e-02
6.13000000000000000000e+09 -5.13388990008434298318e-02 -1.24773663350314957532e-02
6.17500000000000000000e+09 -2.98314365200678111023e-02 +2.42440116365669061649e-02
6.22000000000000000000e+09 -1.05203191215610392106e-02 -1.36878897210511666499e-02
6.26500000000000000000e+09 -5.27976377486182868459e-02 -9.43941822420416194739e-03
6.31000000000000000000e+09 -2.64843361549867428728e-02 +2.38398136822456849226e-02
6.35500000000000000000e+09 -1.26728803862065086960e-02 -1.62825296645298170373e-02
6.40000000000000000000e+09 -5.38182697198782422632e-02 -6.23901155166347361897e-03
6.44500000000000000000e+09 -2.32352085776567074404e-02 +2.29777064014502971356e-02
6.49000000000000000000e+09 -1.51567111849497115905e-02 -1.85457721759547528029e-02
6.53500000000000000000e+09 -5.43840189881859559229e-02 -2.93855905160982349561e-03
6.58000000000000000000e+09 -2.01461685530764933461e-02 +2.16768830061788847496e-02
6.62500000000000000000e+09 -1.79216411174927814365e-02 -2.04361016649308516180e-02
6.67000000000000000000e+09 -5.44868857457477262507e-02 +3.98017857511466640816e-04
6.71500000000000000000e+09 -1.72759360566139275051e-02 +1.99649040485481293894e-02
6.76000000000000000000e+09 -2.09124207058807298765e-02 -2.19195003832069468253e-02
6.80500000000000000000e+09 -5.41277416170445890842e-02 +3.70650417261596254459e-03
6.85000000000000000000e+09 -1.46787129378861402884e-02 +1.78771332247323957998e-02
6.89500000000000000000e+09 -2.40698319062256915757e-02 -2.29700480391537044389e-02
6.94000000000000000000e+09 -5.33162602559796305890e-02 +6.92360430744227029615e-03
6.98500000000000000000e+09 -1.24031494240481876545e-02 +1.54560217102254725263e-02
7.03000000000000000000e+09 -2.73318649922857370704e-02 -2.35703576989330296221e-02
7.07500000000000000000e+09 -5.20706854118989648228e-02 +9.98813140581586954292e-03
7.12000000000000000000e+09 -1.04914213003790557366e-02 +1.27502549133768246226e-02
7.16500000000000000000e+09 -3.06349376792530714297e-02 -2.37118416730221007183e-02
7.21000000000000000000e+09 -5.04174413101333707132e-02 +1.28421518591678770344e-02
7.25500000000000000000e+09 -8.97843649087709527734e-03 +9.81377854377236610861e-03
7.30000000000000000000e+09 -3.39151320445088555466e-02 -2.33948046552595809167e-02
7.34500000000000000000e+09 -4.83905927887617326455e-02 +1.54320646897528439279e-02
7.39000000000000000000e+09 -7.89118717062070595958e-03 +6.70472357551158987948e-03
7.43500000000000000000e+09 -3.71094250186509433398e-02 -2.26283648703808487612e-02
7.48000000000000000000e+09 -4.60311651447541936300e-02 +1.77095965166539394409e-02
7.52500000000000000000e+09 -7.24826052846794244289e-03 +3.48425195687693950441e-03
7.57000000000000000000e+09 -4.01568889245188520576e-02 -2.14302073183148672486e-02
7.61500000000000000000e+09 -4.33863360456120394915e-02 +1.96326941653476548522e-02
7.66000000000000000000e+09 -7.05951793497205937200e-03 +2.15346701930652540020e-04
7.70500000000000000000e+09 -4.29998396832131923873e-02 -1.98261763154555931132e-02
7.75000000000000000000e+09 -4.05085141279952765103e-02 +2.11662986150824503073e-02
7.79500000000000000000e+09 -7.32594864300095682808e-03 -3.03842876484299289491e-03
7.84000000000000000000e+09 -4.55849118268346620297e-02 -1.78497173749775639440e-02
7.88500000000000000000e+09 -3.74543209981300639910e-02 +2.22829859006930669496e-02
7.93000000000000000000e+09 -8.03970035630313661912e-03 -6.21417649597987443305e-03
7.97500000000000000000e+09 -4.78640412975805396023e-02 -1.55411810042248681174e-02
8.02000000000000000000e+09 -3.42834952301050988055e-02 +2.29634627914538369531e-02
8.06500000000000000000e+09 -9.18428515071800788405e-03 -9.25088959650528092071e-03
8.11000000000000000000e+09 -4.97953391117564869717e-02 -1.29470032045405948617e-02
8.15500000000000000000e+09 -3.10577385827059959666e-02 +2.31969075470984734122e-02
8.20000000000000000000e+09 -1.07349554333036611986e-02 -1.20906325301532446836e-02
8.24500000000000000000e+09 -5.13438412680631284246e-02 -1.01187793264967320489e-02
8.29000000000000000000e+09 -2.78395259759489643869e-02 +2.29811487789506815882e-02
8.33500000000000000000e+09 -1.26592409836731589756e-02 -1.46796523809170458008e-02
8.38000000000000000000e+09 -5.24821227304062554175e-02 -7.11224945914708597816e-03
8.42500000000000000000e+09 -2.46909017361077176567e-02 +2.23226783907756569370e-02
8.47000000000000000000e+09 -1.49176347398101705188e-02 -1.69693990304268273184e-02
8.51500000000000000000e+09 -5.31907658703957841873e-02 -3.98621472092838997903e-03
8.56000000000000000000e+09 -2.16722851867028887263e-02 +2.12364976961361695551e-02
8.60500000000000000000e+09 -1.74644119567057831688e-02 -1.89174344416029351079e-02
8.65000000000000000000e+09 -5.34586763750398152872e-02 -8.01404681080251576897e-04
8.69500000000000000000e+09 -1.88413087909614085369e-02 +1.97457990518133189028e-02
8.74000000000000000000e+09 -2.02485647544489721916e-02 -2.04882138880843681084e-02
8.78500000000000000000e+09 -5.32832422782569259390e-02 +2.38068331430443249838e-03
8.83000000000000000000e+09 -1.62517117056567572675e-02 +1.78814886440350102881e-02
8.87500000000000000000e+09 -2.32148319398959857018e-02 -2.16537249512397875217e-02
8.92000000000000000000e+09 -5.26703344342230317388e-02 +5.49895189734953514227e-03
8.96500000000000000000e+09 -1.39523107652185784922e-02 +1.56815593400379468814e-02
9.01000000000000000000e+09 -2.63048023699438693335e-02 -2.23939733288126795185e-02
9.05500000000000000000e+09 -5.16341493937145790127e-02 +8.49385755528533729908e-03
9.10000000000000000000e+09 -1.19860695710805598146e-02 +1.31903256888682152148e-02
9.14500000000000000000e+09 -2.94580690433259850813e-02 -2.26973078667167052491e-02
9.19000000000000000000e+09 -5.01968982517451145497e-02 +1.13085300129164879890e-02
9.23500000000000000000e+09 -1.03892845231139951956e-02 +1.04575361352240957247e-02
9.28000000000000000000e+09 -3.26134105609212632260e-02 -2.25605806448772594486e-02
9.32500000000000000000e+09 -4.83883475868174262047e-02 +1.38898371312158805391e-02
9.37000000000000000000e+09 -9.19090432407826396499e-03 +7.53738021122680144914e-03
9.41500000000000000000e+09 -3.57099765646594624613e-02 -2.19891413323360408738e-02
9.46000000000000000000e+09 -4.62452210887510095638e-02 +1.61893762415893024964e-02
9.50500000000000000000e+09 -8.41199675862874807208e-03 +4.48741080975228155692e-03
9.55000000000000000000e+09 -3.86884542201124670413e-02 -2.09966682979858543234e-02
9.59500000000000000000e+09 -4.38104728504111196052e-02 +1.81643740264684633301e-02
9.64000000000000000000e+09 -8.06537345714763986848e-03 +1.36740354417244289187e-03
9.68500000000000000000e+09 -4.14921937050979905415e-02 -1.96048420546032844958e-02
9.73000000000000000000e+09 -4.11324455515151288232e-02 +1.97784785307360058693e-02
9.77500000000000000000e+09 -8.15537997819992810378e-03 -1.76182340070110731237e-03
9.82000000000000000000e+09 -4.40682719545921197657e-02 -1.78428694712692050006e-02
9.86500000000000000000e+09 -3.82639288586162362726e-02 +2.10024286434739269891e-02
9.91000000000000000000e+09 -8.67785497143652717611e-03 -4.83960467027268886886e-03
9.95500000000000000000e+09 -4.63684755360269651447e-02 -1.57468697717871412844e-02
1.00000000000000000000e+10 -3.52611352671532984893e-02 +2.18145884214313093286e-02
