# HZ S RI R 50
1.00000000000000000000e+09 -8.46515980894904096488e-01 +3.82129464747608060815e-01
1.04500000000000000000e+09 +7.66950422926827468650e-01 +5.06598385795697825351e-01
1.09000000000000000000e+09 -7.40092995892248639578e-02 -9.18543147793533520939e-01
1.13500000000000000000e+09 -7.84313619526967986673e-01 +4.87399953901208826679e-01
1.18000000000000000000e+09 +8.27597192619389798729e-01 +3.86355153329461353806e-01
1.22500000000000000000e+09 -1.98965544753984008297e-01 -8.95226442863656934890e-01
1.27000000000000000000e+09 -7.08973922134685685670e-01 +5.83501861798306320495e-01
1.31500000000000000000e+09 +8.70128641781341860550e-01 +2.58949445769425745656e-01
1.36000000000000000000e+09 -3.18042669221875073937e-01 -8.55715355687028722542e-01
1.40500000000000000000e+09 -6.21653232228549512683e-01 +6.68814615271009271780e-01
1.45000000000000000000e+09 +8.93654065574718714515e-01 +1.27182133467183100528e-01
1.49500000000000000000e+09 -4.29312049976689813491e-01 -8.01204252693833773868e-01
1.54000000000000000000e+09 -5.23720562306002390685e-01 +7.41826867193043137938e-01
1.58500000000000000000e+09 +8.97757786263793877701e-01 -6.01937001568708836274e-03
1.63000000000000000000e+09 -5.31064362360373354299e-01 -7.33080849935221268154e-01
1.67500000000000000000e+09 -4.16754460109290847392e-01 +8.01166944135256797743e-01
1.72000000000000000000e+09 +8.82516757194892864646e-01 -1.37695855400943534264e-01
1.76500000000000000000e+09 -6.21818176421991219982e-01 -6.52887024248738345733e-01
1.81000000000000000000e+09 -3.02536121210643660362e-01 +8.45636179240584429095e-01
1.85500000000000000000e+09 +8.48496588496744252872e-01 -2.64951920356307490945e-01
1.90000000000000000000e+09 -7.00322173284098514756e-01 -5.62283847729555308348e-01
1.94500000000000000000e+09 -1.83036982940977532852e-01 +8.74244758130820365238e-01
1.99000000000000000000e+09 +7.96726549094383895699e-01 -3.85047107763565099603e-01
2.03500000000000000000e+09 -7.65552997426411363513e-01 -4.63021207232422682409e-01
2.08000000000000000000e+09 -6.03992113727688795244e-02 +8.86249082731545123615e-01
2.12500000000000000000e+09 +7.28655683409771603998e-01 -4.95477567820583275626e-01
2.17000000000000000000e+09 -8.16710479337510397713e-01 -3.56911943667760855892e-01
2.21500000000000000000e+09 +6.30922368324805804551e-02 +8.81189072756665581210e-01
2.26000000000000000000e+09 +6.46093526933018580394e-01 -5.94044112357082987330e-01
2.30500000000000000000e+09 -8.53211668801868494683e-01 -2.45810107362395446895e-01
2.35000000000000000000e+09 +1.85046877979958113158e-01 +8.58923291187040582884e-01
2.39500000000000000000e+09 +5.51139839759451355405e-01 -6.78903807347488674750e-01
2.44000000000000000000e+09 -8.74684815890711231390e-01 -1.31592675489583310622e-01
2.48500000000000000000e+09 +3.03015600891507475012e-01 +8.19659344538627543386e-01
2.53000000000000000000e+09 +4.46108209625044604962e-01 -7.48603721000960176113e-01
2.57500000000000000000e+09 -8.80964133556557116300e-01 -1.61439068704622087913e-02
2.62000000000000000000e+09 +4.14546757158696710377e-01 +7.63976735439165444141e-01
2.66500000000000000000e+09 +3.33448300419312559928e-01 -8.02096905632567969135e-01
2.71000000000000000000e+09 -8.72085879870087676835e-01 +9.86585931354326817200e-02
2.75500000000000000000e+09 +5.17250112944409701221e-01 +6.92839303814369200651e-01
2.80000000000000000000e+09 +2.15671008098285182930e-01 -8.38741967594250681373e-01
2.84500000000000000000e+09 -8.48286013170720720744e-01 +2.10957070124342255246e-01
2.89000000000000000000e+09 +6.08866393879736844674e-01 +6.07594644233944825018e-01
2.93500000000000000000e+09 +9.52799544992601055160e-02 -8.58288549685443546977e-01
2.98000000000000000000e+09 -8.09999400578970241149e-01 +3.18927048695149650825e-01
3.02500000000000000000e+09 +6.87339263078019735431e-01 +5.09958465409009686908e-01
3.07000000000000000000e+09 -2.52882553393879716541e-02 -8.60851656187184288704e-01
3.11500000000000000000e+09 -7.57860298870287163453e-01 +4.20791909492386762004e-01
3.16000000000000000000e+09 +7.50885851453860553306e-01 +4.01982757289234104991e-01
3.20500000000000000000e+09 -1.43713625741706763073e-01 -8.46877992698321868659e-01
3.25000000000000000000e+09 -6.92703576481815685995e-01 +5.14839438630394941043e-01
3.29500000000000000000e+09 +7.98061533573780623740e-01 +2.86007794373162815837e-01
3.34000000000000000000e+09 -2.57831784775345795868e-01 -8.17107418031927545954e-01
3.38500000000000000000e+09 -6.15565908534781769390e-01 +5.99441029168449324160e-01
3.43000000000000000000e+09 +8.27814613107923147339e-01 +1.64599321050291624857e-01
3.47500000000000000000e+09 -3.65662791790932528713e-01 -7.72532288330300742629e-01
3.52000000000000000000e+09 -5.27685959259422521228e-01 +6.73074016467876234948e-01
3.56500000000000000000e+09 +8.39527005389908431710e-01 +4.04735844277104017674e-02
3.61000000000000000000e+09 -4.65430708871015119676e-01 -7.14356999165867589952e-01
3.65500000000000000000e+09 -4.30502379392921352697e-01 +7.34347371578935259606e-01
3.70000000000000000000e+09 +8.33037872179379412785e-01 -8.35859694612712672557e-02
3.74500000000000000000e+09 -5.55575298563656505557e-01 -6.43959480204411849336e-01
3.79000000000000000000e+09 -3.25648307147544224804e-01 +7.82030655877581803992e-01
3.83500000000000000000e+09 +8.08648396249220802190e-01 -2.04815700670802819383e-01
3.88000000000000000000e+09 -6.34757410752096795648e-01 -5.62855835650719726893e-01
3.92500000000000000000e+09 -2.14940992994560542417e-01 +8.15085757935848365108e-01
3.97000000000000000000e+09 +7.67107339335629134780e-01 -3.20557478340410317852e-01
4.01500000000000000000e+09 -7.01859662227059422079e-01 -4.72668800605595906816e-01
4.06000000000000000000e+09 -1.00365197583792475911e-01 +8.32700500643420271629e-01
4.10500000000000000000e+09 +7.09578525164995976837e-01 -4.28338217228786510837e-01
4.15000000000000000000e+09 -7.55983930870548492820e-01 -3.75100228671745195008e-01
4.19500000000000000000e+09 +1.59508337116964216129e-02 +8.34322745111966579401e-01
4.24000000000000000000e+09 +6.37592741293041664896e-01 -5.25939006518574725391e-01
4.28500000000000000000e+09 -7.96447019039010939423e-01 -2.71907453869010162784e-01
4.33000000000000000000e+09 +1.31767713219059390273e-01 +8.19693163713819616945e-01
4.37500000000000000000e+09 +5.52987597691504073616e-01 -6.11450602612370386346e-01
4.42000000000000000000e+09 -8.22775619513149258921e-01 -1.64883082514600903812e-01
4.46500000000000000000e+09 +2.44775999019839596293e-01 +7.88874457189169597804e-01
4.51000000000000000000e+09 +4.57839508912090575876e-01 -6.83313313356935569942e-01
4.55500000000000000000e+09 -8.34701467003987396254e-01 -5.58375629583788071764e-02
4.60000000000000000000e+09 +3.52645834537585467494e-01 +7.42274510271344278856e-01
4.64500000000000000000e+09 +3.54392141581131303596e-01 -7.40340629347771117530e-01
4.69000000000000000000e+09 -8.32157296047274730455e-01 +5.34162560187653595589e-02
4.73500000000000000000e+09 +4.53084193028789550262e-01 +6.80660881109186766125e-01
4.78000000000000000000e+09 +2.44985419546112748179e-01 -7.81727196501283305707e-01
4.82500000000000000000e+09 -8.15273963047802197046e-01 +1.61077443348232485221e-01
4.87000000000000000000e+09 +5.43897953865825956044e-01 +6.05164160388374394728e-01
4.91500000000000000000e+09 +1.31988589330298528024e-01 -8.07042744498030373279e-01
4.96000000000000000000e+09 -7.84378832160398609119e-01 +2.65371068591214898102e-01
5.00500000000000000000e+09 +6.23060219984101326673e-01 +5.17268156350751739936e-01
5.05000000000000000000e+09 +1.77400352563522045735e-02 -8.16214308662996268495e-01
5.09500000000000000000e+09 -7.39995274477182052308e-01 +3.64562913181867842560e-01
5.14000000000000000000e+09 +6.88776580476118893692e-01 +4.18785570095778048039e-01
5.18500000000000000000e+09 -9.55043782710576771855e-02 -8.09499481619720406833e-01
5.23000000000000000000e+09 -6.82842889443254219550e-01 +4.56975603110339467783e-01
5.27500000000000000000e+09 +7.39547539001210396670e-01 +3.11818787935025820701e-01
5.32000000000000000000e+09 -2.05613557403660496270e-01 -7.87453524862571696552e-01
5.36500000000000000000e+09 -6.13837829237326437770e-01 +5.41006838826611158311e-01
5.41000000000000000000e+09 +7.74223165462411766491e-01 +1.98706554701172960486e-01
5.45500000000000000000e+09 -3.10613938850292481408e-01 -7.50893011302967705589e-01
5.50000000000000000000e+09 -5.34092396318318396453e-01 +6.15150230543178411224e-01
5.54500000000000000000e+09 +7.92046250726500145056e-01 +8.19584838290501743741e-02
5.59000000000000000000e+09 -4.08713315866708004620e-01 -7.00858327387910318151e-01
5.63500000000000000000e+09 -4.44912900711274317267e-01 +6.78019025131313290977e-01
5.68000000000000000000e+09 +7.92680867169990976961e-01 -3.58195384906717720352e-02
5.72500000000000000000e+09 -4.98316747008597071833e-01 -6.38576910447334444854e-01
5.77000000000000000000e+09 -3.47794620936278997547e-01 +7.28372731672159323679e-01
5.81500000000000000000e+09 +7.76224216632322883136e-01 -1.52005133864986208270e-01
5.86000000000000000000e+09 -5.78035846225390503861e-01 -5.65428599146717614232e-01
5.90500000000000000000e+09 -2.44412629670795439329e-01 +7.65146317557211963489e-01
5.95000000000000000000e+09 +7.43200879081717946661e-01 -2.64039971641982396111e-01
5.99500000000000000000e+09 -6.46692875802002964392e-01 -4.82913984434510834554e-01
6.04000000000000000000e+09 -1.36607244990995024825e-01 +7.87481263678228793346e-01
6.08500000000000000000e+09 +6.94539913802536101883e-01 -3.69506572081546802444e-01
6.13000000000000000000e+09 -7.03321056972041613875e-01 -3.92626201519179651722e-01
6.17500000000000000000e+09 -2.63629745471705145832e-02 +7.94757352970930419644e-01
6.22000000000000000000e+09 +6.31536545500446244716e-01 -4.66197248665792596256e-01
6.26500000000000000000e+09 -7.47162408971648650535e-01 -2.96226221533195333002e-01
6.31000000000000000000e+09 +8.42199448969789543629e-02 +7.86623650079540048807e-01
6.35500000000000000000e+09 +5.55801236265948239712e-01 -5.52171824480430561977e-01
6.40000000000000000000e+09 -7.77664256210688797921e-01 -1.95421393648474439608e-01
6.44500000000000000000e+09 +1.92961932200952118732e-01 +7.63026751829246396852e-01
6.49000000000000000000e+09 +4.69199683824226110307e-01 -6.25801793549176976761e-01
6.53500000000000000000e+09 -7.94475330565409976202e-01 -9.19467546892943909942e-02
6.58000000000000000000e+09 +2.97648368976451860313e-01 +7.24234099351895421748e-01
6.62500000000000000000e+09 +3.73787634809602309360e-01 -6.85799768862375924705e-01
6.67000000000000000000e+09 -7.97442160938538036064e-01 +1.24515413589878151668e-02
6.71500000000000000000e+09 +3.96081180680302402664e-01 +6.70849999376482930558e-01
6.76000000000000000000e+09 +2.71744357259429081264e-01 -7.31234217093636784668e-01
6.80500000000000000000e+09 -7.86606198618798435618e-01 +1.16031424458944543154e-01
6.85000000000000000000e+09 +4.86136313711666545601e-01 +6.03822058241602732664e-01
6.89500000000000000000e+09 +1.65308231143771994232e-01 -7.61530497376734949455e-01
6.94000000000000000000e+09 -7.62201883050582118528e-01 +2.17069539128567523534e-01
6.98500000000000000000e+09 +5.65824984220946736180e-01 +5.24436028681141364061e-01
7.03000000000000000000e+09 +5.67172793717700962635e-02 -7.76460006623340026621e-01
7.07500000000000000000e+09 -7.24655613368732298696e-01 +3.13876102754871655343e-01
7.12000000000000000000e+09 +6.33355897364943687400e-01 +4.34297623278466049523e-01
7.16500000000000000000e+09 -5.18433181886928662330e-02 -7.76119740179655348555e-01
7.21000000000000000000e+09 -6.74585359675805462665e-01 +4.04810743077955892399e-01
7.25500000000000000000e+09 +6.87195124436831838999e-01 +3.35300642541621396475e-01
7.30000000000000000000e+09 -1.58285502944480183096e-01 -7.60904800971137995624e-01
7.34500000000000000000e+09 -6.12800427752716703189e-01 +4.88299973830600531066e-01
7.39000000000000000000e+09 +7.26120071249419907211e-01 +2.29581743275432126339e-01
7.43500000000000000000e+09 -2.60653950193426187099e-01 -7.31476364154074687463e-01
7.48000000000000000000e+09 -5.40300686527891094180e-01 +5.62856827521457048213e-01
7.52500000000000000000e+09 +7.49264043672212887159e-01 +1.19463240067903375685e-01
7.57000000000000000000e+09 -3.57153210783135888207e-01 -6.88727381397550075803e-01
7.61500000000000000000e+09 -4.58274386992513549366e-01 +6.27102974037059501811e-01
7.66000000000000000000e+09 +7.56148345736723515031e-01 +7.38636753613028385068e-03
7.70500000000000000000e+09 -4.46167078975261977014e-01 -6.33747952332781139262e-01
7.75000000000000000000e+09 -3.68093556028661561541e-01 +6.79793410992531543791e-01
7.79500000000000000000e+09 +7.46699612521198652360e-01 -1.04161697825107174564e-01
7.84000000000000000000e+09 -5.26271225467073833215e-01 -5.67791862058814822412e-01
7.88500000000000000000e+09 -2.71305854660061629424e-01 +7.19843517254051934451e-01
7.93000000000000000000e+09 +7.21251112067059052535e-01 -2.12723168182386290770e-01
7.97500000000000000000e+09 -5.96240324165813850854e-01 -4.92245335623068824837e-01
8.02000000000000000000e+09 -1.69621766926243644491e-01 +7.46357920697879873018e-01
8.06500000000000000000e+09 +6.80527932109226907365e-01 -3.15943215455231629640e-01
8.11000000000000000000e+09 -6.55050959771220853156e-01 -4.08598633116384335473e-01
8.15500000000000000000e+09 -6.48960540973878008408e-02 +7.58660258628895078914e-01
8.20000000000000000000e+09 +6.25617157288338443522e-01 -4.11637844490558402200e-01
8.24500000000000000000e+09 -7.01881557393383426202e-01 -3.18420728970824573612e-01
8.29000000000000000000e+09 +4.08974107153454724539e-02 +7.56322527513683784406e-01
8.33500000000000000000e+09 +5.57925198436217129050e-01 -4.97852674408201079093e-01
8.38000000000000000000e+09 -7.36110452990463404177e-01 -2.23337000684604269907e-01
8.42500000000000000000e+09 +1.45698005786179696219e-01 +7.39192361396698971454e-01
8.47000000000000000000e+09 +4.79125238414796816855e-01 -5.72910071505333573505e-01
8.51500000000000000000e+09 -7.57313049271076121904e-01 -1.25009600580095803224e-01
8.56000000000000000000e+09 +2.47398062898320114655e-01 +7.07416288629927447751e-01
8.60500000000000000000e+09 +3.91098232018555647116e-01 -6.35443091830796724651e-01
8.65000000000000000000e+09 -7.65258796182575973255e-01 -2.51199979957693886323e-02
8.69500000000000000000e+09 +3.43889493397926737650e-01 +6.61456843521155524179e-01
8.74000000000000000000e+09 +2.95871015568228590276e-01 -6.84415753323641795625e-01
8.78500000000000000000e+09 -7.59908513323581891186e-01 +7.46469462538114636452e-02
8.83000000000000000000e+09 +4.33116279689666483499e-01 +6.02101402353520942512e-01
8.87500000000000000000e+09 +1.95554870464260538432e-01 -7.19130143424578149869e-01
8.92000000000000000000e+09 -7.41412343990532241023e-01 +1.72618082117424354038e-01
8.96500000000000000000e+09 +5.13131095396291314614e-01 +5.30460812620259236638e-01
9.01000000000000000000e+09 +9.22874095883929046469e-02 -7.39221681354772730543e-01
9.05500000000000000000e+09 -7.10108403846697155970e-01 +2.67146979426849506822e-01
9.10000000000000000000e+09 +5.82153676140055198474e-01 +4.47956312634548603491e-01
9.14500000000000000000e+09 -1.18199946983946202472e-02 -7.44644434657306564240e-01
9.19000000000000000000e+09 -6.66521965923426940037e-01 +3.56629549160851988532e-01
9.23500000000000000000e+09 +6.38628042474959856101e-01 +3.56293890803609125673e-01
9.28000000000000000000e+09 -1.14727751503629432639e-01 -7.35648716172395467083e-01
9.32500000000000000000e+09 -6.11364811685465414648e-01 +4.39520912386974549335e-01
9.37000000000000000000e+09 +6.81275361067838036710e-01 +2.57426071045291582351e-01
9.41500000000000000000e+09 -2.14505793426041896366e-01 -7.12753273917906993162e-01
9.46000000000000000000e+09 -5.45534179901205673602e-01 +5.14354037281293030581e-01
9.50500000000000000000e+09 +7.09139189523981916530e-01 +1.53502059994684469935e-01
9.55000000000000000000e+09 -3.09363397781464488645e-01 -6.76714270954324681462e-01
9.59500000000000000000e+09 -4.70110567879420182535e-01 +5.79760502372580588393e-01
9.64000000000000000000e+09 +7.21620124484557812217e-01 +4.68081517804866051313e-02
9.68500000000000000000e+09 -3.97671491370628737982e-01 -6.28492987671092073754e-01
9.73000000000000000000e+09 -3.86353493176767204265e-01 +6.34493533278983057322e-01
9.77500000000000000000e+09 +7.18497460714340063781e-01 -6.02988582915351609137e-02
9.82000000000000000000e+09 -4.77978228720407183339e-01 -5.69223820927012624793e-01
9.86500000000000000000e+09 -2.95694221590922345921e-01 +6.77453201147350414502e-01
9.91000000000000000000e+09 +6.99936323507289959167e-01 -1.65461860293966589452e-01
9.95500000000000000000e+09 -5.49018877559306783809e-01 -5.00183754421177462213e-01
1.00000000000000000000e+10 -1.99724425764065516287e-01 +7.07713368300143752521e-01
