# HZ S RI R 50
1.00000000000000000000e+09 +8.17887733015688178639e-01 -4.23040333638065368937e-01
1.04500000000000000000e+09 -8.04533762946645358838e-01 -4.60204653165616983657e-01
1.09000000000000000000e+09 -3.87473097313760783678e-02 +9.20527938369380294148e-01
1.13500000000000000000e+09 +7.42948329619144143265e-01 -5.35090724523648031408e-01
1.18000000000000000000e+09 -8.53715966397909920005e-01 -3.48633681031832731723e-01
1.22500000000000000000e+09 +8.92884138669799432009e-02 +9.11161540967920235978e-01
1.27000000000000000000e+09 +6.53668315606798167039e-01 -6.34197221418054679631e-01
1.31500000000000000000e+09 -8.87686534037054997270e-01 -2.32581869743651359350e-01
1.36000000000000000000e+09 +2.15063356422443341387e-01 +8.84094200850579436946e-01
1.40500000000000000000e+09 +5.52276784375989260312e-01 -7.18597589960620064531e-01
1.45000000000000000000e+09 -9.06141986370502250381e-01 -1.13940548369631161618e-01
1.49500000000000000000e+09 +3.36075277203694788852e-01 +8.39618552812451124367e-01
1.54000000000000000000e+09 +4.41203259499390432197e-01 -7.86933460780818938574e-01
1.58500000000000000000e+09 -9.08981359212679418391e-01 +5.39039414699189235736e-03
1.63000000000000000000e+09 +4.49824841572982359050e-01 +7.78414146182160759935e-01
1.67500000000000000000e+09 +3.22995855529554065644e-01 -8.38263628535786842200e-01
1.72000000000000000000e+09 -8.96303485982895553619e-01 +1.23517580207644639412e-01
1.76500000000000000000e+09 +5.53885119004249193431e-01 +7.01558352244088689886e-01
1.81000000000000000000e+09 +2.00244258577228023688e-01 -8.72059959022043029719e-01
1.85500000000000000000e+09 -8.68405753024326987344e-01 +2.38568006264915088988e-01
1.90000000000000000000e+09 +6.45975842188903692787e-01 +6.10523195282473452039e-01
1.94500000000000000000e+09 +7.55106129992181018817e-02 -8.88188943062840241538e-01
1.99000000000000000000e+09 -8.25784349333801293014e-01 +3.48702997201625175538e-01
2.03500000000000000000e+09 +7.24039170172580903717e-01 +5.07156082703960620073e-01
2.08000000000000000000e+09 -4.87295904189373740856e-02 -8.86882308830504340058e-01
2.12500000000000000000e+09 -7.69135721488944490432e-01 +4.52133356718795287321e-01
2.17000000000000000000e+09 +7.86312875874158878631e-01 +3.93643438517635613216e-01
2.21500000000000000000e+09 -1.70135567740328952357e-01 -8.68700169337963457039e-01
2.26000000000000000000e+09 -6.99358665024517378583e-01 +5.47136641438379145441e-01
2.30500000000000000000e+09 +8.31396443758903425092e-01 +2.72457530122459212762e-01
2.35000000000000000000e+09 -2.86538124707375496669e-01 -8.34489965585546222826e-01
2.39500000000000000000e+09 -6.17556227708736527049e-01 +6.32077291309542377284e-01
2.44000000000000000000e+09 +8.58305594720102149608e-01 +1.46288196810223147803e-01
2.48500000000000000000e+09 -3.95966025232895590946e-01 -7.85344038046347669990e-01
2.53000000000000000000e+09 -5.25036370192561441250e-01 +7.05430113308276318662e-01
2.57500000000000000000e+09 +8.66511288316248129426e-01 +1.79625714528450358687e-02
2.62000000000000000000e+09 -4.96663055443930578914e-01 -7.22558103218289726755e-01
2.66500000000000000000e+09 -4.23310135596650038980e-01 +7.65807325255325799240e-01
2.71000000000000000000e+09 +8.55960256814408015913e-01 -1.09642950263980840098e-01
2.75500000000000000000e+09 -5.87097331695300206356e-01 -6.47592306259996419726e-01
2.80000000000000000000e+09 -3.14085939590768914442e-01 +8.11989014329351332933e-01
2.84500000000000000000e+09 +8.27075496942222709862e-01 -2.33693463221115838024e-01
2.89000000000000000000e+09 -6.65964547567109876880e-01 -5.62035928267934359326e-01
2.93500000000000000000e+09 -1.99258530811098816260e-01 +8.42956451042107257621e-01
2.98000000000000000000e+09 +7.80736717694743620477e-01 -3.51483727180103178167e-01
3.02500000000000000000e+09 -7.32186846035406624367e-01 -4.67576291205561545006e-01
3.07000000000000000000e+09 -8.08912168374490148093e-02 +8.57927235306688684702e-01
3.11500000000000000000e+09 +7.18242314809636295259e-01 -4.60518732976039124605e-01
3.16000000000000000000e+09 -7.84908879254154756566e-01 -3.65971949751848102395e-01
3.20500000000000000000e+09 +3.88098672146747203371e-02 +8.56390761437750613894e-01
3.25000000000000000000e+09 +6.41255814581717875633e-01 -5.58582405358098110781e-01
3.29500000000000000000e+09 -8.23492417644887453321e-01 -2.59029896799139014441e-01
3.34000000000000000000e+09 +1.57530327790955326783e-01 +8.38142013291211851467e-01
3.38500000000000000000e+09 +5.51740738708345612729e-01 -6.43791344346158367351e-01
3.43000000000000000000e+09 -8.47510623794933026787e-01 -1.48586236352195144583e-01
3.47500000000000000000e+09 +2.72891284306959192030e-01 +8.03311293777468682364e-01
3.52000000000000000000e+09 +4.51888389201083151558e-01 -7.14631879589574525724e-01
3.56500000000000000000e+09 -8.56742838592610800319e-01 -3.64895859597382382633e-02
3.61000000000000000000e+09 +3.82502026354053059620e-01 +7.52387220123951649953e-01
3.65500000000000000000e+09 +3.44043115522992160038e-01 -7.69980116054187258001e-01
3.70000000000000000000e+09 -8.51170452826261358936e-01 +7.54136503308538985735e-02
3.74500000000000000000e+09 +4.84020427728925728417e-01 +6.86230246273584532091e-01
3.79000000000000000000e+09 +2.30629253930944827511e-01 -8.09105916837123406715e-01
3.83500000000000000000e+09 -8.30974166284698334550e-01 +1.85293058741685806590e-01
3.88000000000000000000e+09 +5.75219108853210703280e-01 +6.06074167235469363213e-01
3.92500000000000000000e+09 +1.14083223909355352399e-01 -8.31662774595912868136e-01
3.97000000000000000000e+09 -7.96532672587916712459e-01 +2.91347972116286602073e-01
4.01500000000000000000e+09 +6.54054485554942721670e-01 +5.13513555369268459572e-01
4.06000000000000000000e+09 -3.20664086492061795042e-03 -8.37666197076028629098e-01
4.10500000000000000000e+09 -7.48422553226595344000e-01 +3.91822098587767841948e-01
4.15000000000000000000e+09 +7.18735127305722198976e-01 +4.10475877614524642389e-01
4.19500000000000000000e+09 -1.18950926391946654181e-01 -8.27463560638633133237e-01
4.24000000000000000000e+09 -6.87418919700444552845e-01 +4.85019832606758405369e-01
4.28500000000000000000e+09 +7.67785388998258211402e-01 +2.99178101281466379824e-01
4.33000000000000000000e+09 -2.30999967845367470964e-01 -8.01698400980519476633e-01
4.37500000000000000000e+09 -6.14496110743457002457e-01 +5.69324928003138608368e-01
4.42000000000000000000e+09 +8.00100177705752479973e-01 +1.82068820796546182450e-01
4.46500000000000000000e+09 -3.37374807702956580613e-01 -7.61271875715502366333e-01
4.51000000000000000000e+09 -5.30827538100143936362e-01 +6.43222030369425157303e-01
4.55500000000000000000e+09 +8.14987031187482391381e-01 +6.17581938366078483926e-02
4.60000000000000000000e+09 -4.36289039739066353274e-01 -7.07303726593196402384e-01
4.64500000000000000000e+09 -4.37783589399166783718e-01 +7.05321326772840428987e-01
4.69000000000000000000e+09 +8.12192422846181427687e-01 -5.90608954454760540220e-02
4.73500000000000000000e+09 -5.26162725896134997328e-01 -6.41094567005197291110e-01
4.78000000000000000000e+09 -3.36926355883802652880e-01 +7.54386271536314767516e-01
4.82500000000000000000e+09 +7.91910307733395546492e-01 -1.77696180621121357923e-01
4.87000000000000000000e+09 -6.05629817249772717247e-01 -5.64090789736602760129e-01
4.91500000000000000000e+09 -2.29999876837614358749e-01 +7.89363989042375813199e-01
4.96000000000000000000e+09 +7.54772264950675952910e-01 -2.91539155207804656644e-01
5.00500000000000000000e+09 -6.73540594218628330125e-01 -4.77852881437295595735e-01
5.05000000000000000000e+09 -1.18914606150454432720e-01 +8.09417547296563233417e-01
5.09500000000000000000e+09 +7.01820010360314716635e-01 -3.98143328980976207720e-01
5.14000000000000000000e+09 -7.28960598240173007767e-01 -3.84027477599266142683e-01
5.18500000000000000000e+09 -5.72493547411576098050e-03 +8.13958858890177827661e-01
5.23000000000000000000e+09 +6.34462373251064026825e-01 -4.95293404470131481965e-01
5.27500000000000000000e+09 -7.71167391982803041017e-01 -2.84323112988367820986e-01
5.32000000000000000000e+09 +1.07401124434510691907e-01 +8.02680531051396473075e-01
5.36500000000000000000e+09 +5.54419892867964447802e-01 -5.81062060249825096392e-01
5.41000000000000000000e+09 -7.99646289040184532482e-01 -1.80489323335130180670e-01
5.45500000000000000000e+09 +2.18220583398382683704e-01 +7.75584598458823215594e-01
5.50000000000000000000e+09 +4.63660882087715997546e-01 -6.53852170825080292182e-01
5.54500000000000000000e+09 -8.14085962252136030592e-01 -7.42985321835883671948e-02
5.59000000000000000000e+09 +3.24462341991036962163e-01 +7.33005786676948600800e-01
5.63500000000000000000e+09 +3.64333074306782633833e-01 -7.12423542743498172669e-01
5.68000000000000000000e+09 -8.14374590870407977228e-01 +3.24699949121683151265e-02
5.72500000000000000000e+09 +4.23881504271112152793e-01 +6.75626830651575138731e-01
5.77000000000000000000e+09 +2.58694828643563023984e-01 -7.55904447739700113829e-01
5.81500000000000000000e+09 -8.00596953005309419638e-01 +1.38044936683849650549e-01
5.86000000000000000000e+09 +5.14319568616496525237e-01 +6.04483467880925107174e-01
5.90500000000000000000e+09 +1.49049385174273435473e-01 -7.83789257029883223993e-01
5.95000000000000000000e+09 -7.73032618413440841820e-01 +2.40677286848909988137e-01
5.99500000000000000000e+09 +5.93768150570457509119e-01 +5.20957080385222148777e-01
6.04000000000000000000e+09 +3.76849390769750380858e-02 -7.95924239988303305893e-01
6.08500000000000000000e+09 -7.32155151673470228069e-01 +3.38655140706132284922e-01
6.13000000000000000000e+09 +6.60433199208049548368e-01 +4.26753586473523960354e-01
6.17500000000000000000e+09 -7.31775433208011194530e-02 -7.92484047837941352199e-01
6.22000000000000000000e+09 -6.78631999667811403043e-01 +4.30319670751586780266e-01
6.26500000000000000000e+09 +7.12796168325301127133e-01 +3.23868057817030763346e-01
6.31000000000000000000e+09 -1.81427702799198481420e-01 -7.73941566064996644414e-01
6.35500000000000000000e+09 -6.13324512969858126610e-01 +5.14082959800283068041e-01
6.40000000000000000000e+09 +7.49668390746379253997e-01 +2.14535592211294701137e-01
6.44500000000000000000e+09 -2.85100080073674488901e-01 -7.41033729462845403013e-01
6.49000000000000000000e+09 -5.37287343243218362687e-01 +5.88448206654635042057e-01
6.53500000000000000000e+09 +7.70235046142065837849e-01 +1.01170101183416613622e-01
6.58000000000000000000e+09 -3.82399692622152564958e-01 -6.94725612596625685669e-01
6.62500000000000000000e+09 -4.51766276547880651915e-01 +6.52032613705880059740e-01
6.67000000000000000000e+09 +7.74085633560591124258e-01 -1.37062588405853866963e-02
6.71500000000000000000e+09 -4.71719748959628870644e-01 -6.36174704189098383367e-01
6.76000000000000000000e+09 -3.58193418308620781243e-01 +7.03593005534103976828e-01
6.80500000000000000000e+09 +7.61228728038897184405e-01 -1.27539412030857529645e-01
6.85000000000000000000e+09 -5.51652667894765302847e-01 -5.66696810369522463446e-01
6.89500000000000000000e+09 -2.58178556906920819713e-01 +7.42053913458583958018e-01
6.94000000000000000000e+09 +7.32089929589586407843e-01 -2.37821293779648001987e-01
6.98500000000000000000e+09 -6.20995728324691964595e-01 -4.87734561635767394083e-01
7.03000000000000000000e+09 -1.53495520375374089328e-01 +7.66537499873546135376e-01
7.07500000000000000000e+09 +6.87493172152533804642e-01 -3.42165081711170548928e-01
7.12000000000000000000e+09 -6.78752702174753252962e-01 -4.00829060209204557363e-01
7.16500000000000000000e+09 -4.60624271284269803939e-02 +7.76394303377705652380e-01
7.21000000000000000000e+09 +6.28626796949435462381e-01 -4.38373689418735335011e-01
7.25500000000000000000e+09 -7.24132748815680904464e-01 -3.07594822355171937378e-01
7.30000000000000000000e+09 +6.20850620552522991513e-02 +7.71233386933786846384e-01
7.34500000000000000000e+09 +5.56996860499960000368e-01 -5.24498132623980151124e-01
7.39000000000000000000e+09 -7.56547702793547438560e-01 -2.09697856083911698954e-01
7.43500000000000000000e+09 +1.68828042974705799795e-01 +7.50950103507324384644e-01
7.48000000000000000000e+09 +4.74370923571386882145e-01 -5.98883311494232351002e-01
7.52500000000000000000e+09 -7.75608693315056330064e-01 -1.08836471121588659883e-01
7.57000000000000000000e+09 +2.72006292548817085741e-01 +7.15749403606067868822e-01
7.61500000000000000000e+09 +3.82715983164866602184e-01 -6.60199845145170716165e-01
7.66000000000000000000e+09 -7.81122813600138576895e-01 -6.72424195893648810052e-03
7.70500000000000000000e+09 +3.69467294069420637559e-01 +6.66162449470899531434e-01
7.75000000000000000000e+09 +2.84134251053418995792e-01 -7.07461705789422135027e-01
7.79500000000000000000e+09 -7.73090325321046378804e-01 +9.49255699308176742468e-02
7.84000000000000000000e+09 +4.59121153010576044107e-01 +6.03054322870951842184e-01
7.88500000000000000000e+09 +1.80800187475984475149e-01 -7.40030404497274529874e-01
7.93000000000000000000e+09 -7.51702647387060052253e-01 +1.94414888538444574628e-01
7.97500000000000000000e+09 +5.38999481382303136101e-01 +5.27620858551837823569e-01
8.02000000000000000000e+09 +7.49016446804104951696e-02 -7.57607283275713583315e-01
8.06500000000000000000e+09 -7.17341145207207153689e-01 +2.90075754787047501715e-01
8.11000000000000000000e+09 +6.07315668848564360616e-01 +4.41373123341588680102e-01
8.15500000000000000000e+09 -3.14127395355092708940e-02 -7.60216015137058054307e-01
8.20000000000000000000e+09 -6.70576510156986382860e-01 +3.80286045777858627837e-01
8.24500000000000000000e+09 +6.62523441054657991067e-01 +3.46108781091689465814e-01
8.29000000000000000000e+09 -1.36078532425935566641e-01 -7.48177692430103347121e-01
8.33500000000000000000e+09 -6.12168302813927645012e-01 +4.63486629712788977820e-01
8.38000000000000000000e+09 +7.03370317794894561736e-01 +2.43870488909208343875e-01
8.42500000000000000000e+09 -2.37152260990585478373e-01 -7.22080916143410411756e-01
8.47000000000000000000e+09 -5.43064032337412072593e-01 +5.38200477144777367222e-01
8.51500000000000000000e+09 +7.28942595643910729031e-01 +1.36892477378740662353e-01
8.56000000000000000000e+09 -3.32839961957933971881e-01 -6.82749131194716807336e-01
8.60500000000000000000e+09 -4.64396965415060480886e-01 +6.03054073334696516540e-01
8.65000000000000000000e+09 +7.38698827374154931569e-01 +2.75374656194077686855e-02
8.69500000000000000000e+09 -4.21518074633790429395e-01 -6.31207142714049984633e-01
8.74000000000000000000e+09 -3.77481712226657606379e-01 +6.56801250183570273222e-01
8.78500000000000000000e+09 +7.32489444184380000813e-01 -8.17730722859683206716e-02
8.83000000000000000000e+09 -5.01747589679999883572e-01 -5.68648354936544420113e-01
8.87500000000000000000e+09 -2.83806538449655365586e-01 +6.98349280014639917091e-01
8.92000000000000000000e+09 +7.10561107473206332585e-01 -1.88631654954401123403e-01
8.96500000000000000000e+09 -5.72282585042738878300e-01 -4.96403849785597595101e-01
9.01000000000000000000e+09 -1.85021319408514267613e-01 +7.26786752542482039630e-01
9.05500000000000000000e+09 +6.73545482443132281780e-01 -2.90716636624768764996e-01
9.10000000000000000000e+09 -6.32074367971646178255e-01 -4.15914007653788941887e-01
9.14500000000000000000e+09 -8.29201048893749570468e-02 +7.41412402752227861491e-01
9.19000000000000000000e+09 +6.22433266453707889632e-01 -3.85859316087591275313e-01
9.23500000000000000000e+09 -6.80272423423867622638e-01 -3.28702996815179171453e-01
9.28000000000000000000e+09 +2.05825799966626865611e-02 +7.41763691962852744766e-01
9.32500000000000000000e+09 +5.58535345219419832041e-01 -4.72102932225263338673e-01
9.37000000000000000000e+09 -7.16223270173294235263e-01 -2.36356137126745746713e-01
9.41500000000000000000e+09 +1.23482296690045872944e-01 +7.27643597663421792809e-01
9.46000000000000000000e+09 +4.83433771492014774385e-01 -5.47750912317405247443e-01
9.50500000000000000000e+09 -7.39468170970359883754e-01 -1.40499885458796103244e-01
9.55000000000000000000e+09 +2.23722316483032174217e-01 +6.99143779472469972802e-01
9.59500000000000000000e+09 +3.98925782062777511960e-01 -6.11402677787399095877e-01
9.64000000000000000000e+09 -7.49740452562098536049e-01 -4.27839951481395197597e-02
9.68500000000000000000e+09 +3.19237988360586699699e-01 +6.56662104713790606425e-01
9.73000000000000000000e+09 +3.06964255416062370418e-01 -6.61976322161102803676e-01
9.77500000000000000000e+09 -7.46962981019871130606e-01 +5.51347337968128292651e-02
9.82000000000000000000e+09 +4.08006930389986921526e-01 +6.00912484461777141043e-01
9.86500000000000000000e+09 +2.09597878160990291896e-01 -6.98718438860041368699e-01
9.91000000000000000000e+09 -7.31246118824963153848e-01 +1.51607778058970299462e-01
9.95500000000000000000e+09 +4.88103478002859303420e-01 +5.32925129561030663794e-01
1.00000000000000000000e+10 +1.08913887663918435011e-01 -7.21202194169375365718e-01
