# HZ S RI R 50
1.00000000000000000000e+09 -1.43141239396078201462e-02 -2.04554344452286124278e-02 -8.32201856955296137563e-01 +4.02584899192836742632e-01 -8.32201856955296137563e-01 +4.02584899192836742632e-01 -1.43141239396078201462e-02 -2.04554344452286124278e-02
1.04500000000000000000e+09 -1.87916700099089901965e-02 +2.31968663150404832973e-02 +7.85742092936736469255e-01 +4.83401519480657348993e-01 +7.85742092936736469255e-01 +4.83401519480657348993e-01 -1.87916700099089901965e-02 +2.31968663150404832973e-02
1.09000000000000000000e+09 -5.63783046603004711628e-02 +9.92395287923390073681e-04 -1.76309949289243129977e-02 -9.19535543081456796521e-01 -1.76309949289243129977e-02 -9.19535543081456796521e-01 -5.63783046603004711628e-02 +9.92395287923390073681e-04
1.13500000000000000000e+09 -2.06826449539119078258e-02 -2.38453853112196093034e-02 -7.63630974573056175991e-01 +5.11245339212428429043e-01 -7.63630974573056175991e-01 +5.11245339212428429043e-01 -2.06826449539119078258e-02 -2.38453853112196093034e-02
1.18000000000000000000e+09 -1.30593868892602427839e-02 +1.88607361488142381833e-02 +8.40656579508649914878e-01 +3.67494417180647070520e-01 +8.40656579508649914878e-01 +3.67494417180647070520e-01 -1.30593868892602427839e-02 +1.88607361488142381833e-02
1.22500000000000000000e+09 -5.48385654435020325481e-02 +7.96754905213200789738e-03 -1.44126979310481989627e-01 -9.03193991915788529923e-01 -1.44126979310481989627e-01 -9.03193991915788529923e-01 -5.48385654435020325481e-02 +7.96754905213200789738e-03
1.27000000000000000000e+09 -2.76528032639438078877e-02 -2.53476798098741726295e-02 -6.81321118870741981866e-01 +6.08849541608180611085e-01 -6.81321118870741981866e-01 +6.08849541608180611085e-01 -2.76528032639438078877e-02 -2.53476798098741726295e-02
1.31500000000000000000e+09 -8.77894612785647468489e-03 +1.31837880128872035612e-02 +8.78907587909198650955e-01 +2.45765657756538663525e-01 +8.78907587909198650955e-01 +2.45765657756538663525e-01 -8.77894612785647468489e-03 +1.31837880128872035612e-02
1.36000000000000000000e+09 -5.14896563997158385195e-02 +1.41894225817752600571e-02 -2.66553012822159096640e-01 -8.69904778268804079744e-01 -2.66553012822159096640e-01 -8.69904778268804079744e-01 -5.14896563997158385195e-02 +1.41894225817752600571e-02
1.40500000000000000000e+09 -3.46882239262802649638e-02 -2.48914873448052784144e-02 -5.86965008302269386498e-01 +6.93706102615814779178e-01 -5.86965008302269386498e-01 +6.93706102615814779178e-01 -3.46882239262802649638e-02 -2.48914873448052784144e-02
1.45000000000000000000e+09 -6.24396039789178614737e-03 +6.62079254877594343409e-03 +8.99898025972610593470e-01 +1.20561340918407158829e-01 +8.99898025972610593470e-01 +1.20561340918407158829e-01 -6.24396039789178614737e-03 +6.62079254877594343409e-03
1.49500000000000000000e+09 -4.66183863864975608915e-02 +1.92071500593086925968e-02 -3.82693663590192301172e-01 -8.20411402753142504629e-01 -3.82693663590192301172e-01 -8.20411402753142504629e-01 -4.66183863864975608915e-02 +1.92071500593086925968e-02
1.54000000000000000000e+09 -4.12586514033060763884e-02 -2.25532967938878274594e-02 -4.82461910902696577974e-01 +7.64380163986931315812e-01 -4.82461910902696577974e-01 +7.64380163986931315812e-01 -4.12586514033060763884e-02 -2.25532967938878274594e-02
1.58500000000000000000e+09 -5.61178647444269401712e-03 -3.14487934347598978475e-04 +9.03369572738236703557e-01 -5.70488208133949036005e-03 +9.03369572738236703557e-01 -5.70488208133949036005e-03 -5.61178647444269401712e-03 -3.14487934347598978475e-04
1.63000000000000000000e+09 -4.06197603936955253801e-02 +2.26666481234696869096e-02 -4.90444601966677884430e-01 -7.55747498058691125067e-01 -4.90444601966677884430e-01 -7.55747498058691125067e-01 -4.06197603936955253801e-02 +2.26666481234696869096e-02
1.67500000000000000000e+09 -4.68793022898684255684e-02 -1.85483422002649424309e-02 -3.69875157819422539784e-01 +8.19715286335522153038e-01 -3.69875157819422539784e-01 +8.19715286335522153038e-01 -4.68793022898684255684e-02 -1.85483422002649424309e-02
1.72000000000000000000e+09 -6.89336439400136530287e-03 -7.08913759664944395644e-03 +8.89410121588894320155e-01 -1.30606717804294059082e-01 +8.89410121588894320155e-01 -1.30606717804294059082e-01 -6.89336439400136530287e-03 -7.08913759664944395644e-03
1.76500000000000000000e+09 -3.39665287088710826646e-02 +2.43356639976751512600e-02 -5.87851647713120262218e-01 -6.77222688246413517810e-01 -5.87851647713120262218e-01 -6.77222688246413517810e-01 -3.39665287088710826646e-02 +2.43356639976751512600e-02
1.81000000000000000000e+09 -5.11459313167078460927e-02 -1.32118898907292656175e-02 -2.51390189893935800391e-01 +8.58848069131313840430e-01 -2.51390189893935800391e-01 +8.58848069131313840430e-01 -5.11459313167078460927e-02 -1.32118898907292656175e-02
1.85500000000000000000e+09 -9.95458226379149907492e-03 -1.31919570456961923050e-02 +8.58451170760535786641e-01 -2.51759963310611234455e-01 +8.58451170760535786641e-01 -2.51759963310611234455e-01 -9.95458226379149907492e-03 -1.31919570456961923050e-02
1.90000000000000000000e+09 -2.71731655475973485347e-02 +2.41196737764590198039e-02 -6.73149007736501103771e-01 -5.86403521506014380194e-01 -6.73149007736501103771e-01 -5.86403521506014380194e-01 -2.71731655475973485347e-02 +2.41196737764590198039e-02
1.94500000000000000000e+09 -5.37631849708797293630e-02 -6.97209246600993121090e-03 -1.29273797970097886756e-01 +8.81216850596830303388e-01 -1.29273797970097886756e-01 +8.81216850596830303388e-01 -5.37631849708797293630e-02 -6.97209246600993121090e-03
1.99000000000000000000e+09 -1.45289001197086362072e-02 -1.81720552809699620322e-02 +8.11255449214092538845e-01 -3.66875052482595165326e-01 +8.11255449214092538845e-01 -3.66875052482595165326e-01 -1.45289001197086362072e-02 -1.81720552809699620322e-02
2.03500000000000000000e+09 -2.07569136269152992869e-02 +2.20674377357689549539e-02 -7.44796083799496244637e-01 -4.85088644968191762263e-01 -7.44796083799496244637e-01 -4.85088644968191762263e-01 -2.07569136269152992869e-02 +2.20674377357689549539e-02
2.08000000000000000000e+09 -5.45644008958531198661e-02 -3.16613049479479852222e-04 -5.83481047691580129166e-03 +8.86565695781024620814e-01 -5.83481047691580129166e-03 +8.86565695781024620814e-01 -5.45644008958531198661e-02 -3.16613049479479852222e-04
2.12500000000000000000e+09 -2.02400190395864328086e-02 -2.16721055508939872136e-02 +7.48895702449357991703e-01 -4.73805462269689336985e-01 +7.48895702449357991703e-01 -4.73805462269689336985e-01 -2.02400190395864328086e-02 -2.16721055508939872136e-02
2.17000000000000000000e+09 -1.51988017316758428077e-02 +1.83657474249373127428e-02 -8.01511677605834749194e-01 -3.75277691092698262310e-01 -8.01511677605834749194e-01 -3.75277691092698262310e-01 -1.51988017316758428077e-02 +1.83657474249373127428e-02
2.21500000000000000000e+09 -5.35216654539241373789e-02 +6.24445170935096147136e-03 +1.16613902286404780284e-01 +8.74944621047314630147e-01 +1.16613902286404780284e-01 +8.74944621047314630147e-01 -5.35216654539241373789e-02 +6.24445170935096147136e-03
2.26000000000000000000e+09 -2.66325690457493852170e-02 -2.34537354593519001278e-02 +6.72726095978768201533e-01 -5.70590376897731066386e-01 +6.72726095978768201533e-01 -5.70590376897731066386e-01 -2.66325690457493852170e-02 -2.34537354593519001278e-02
2.30500000000000000000e+09 -1.09076125214827637788e-02 +1.33237113800318707907e-02 -8.42304056280386292954e-01 -2.59133818742427413095e-01 -8.42304056280386292954e-01 -2.59133818742427413095e-01 -1.09076125214827637788e-02 +1.33237113800318707907e-02
2.35000000000000000000e+09 -5.07456233637086639998e-02 +1.22166628007471817635e-02 +2.35792501343666832669e-01 +8.46706628386293291832e-01 +2.35792501343666832669e-01 +8.46706628386293291832e-01 -5.07456233637086639998e-02 +1.22166628007471817635e-02
2.39500000000000000000e+09 -3.32081939746426552107e-02 -2.34132580189731452636e-02 +5.84348033734094163272e-01 -6.55490549328515581529e-01 +5.84348033734094163272e-01 -6.55490549328515581529e-01 -3.32081939746426552107e-02 -2.34132580189731452636e-02
2.44000000000000000000e+09 -8.18961058530454782955e-03 +7.34776066031990297833e-03 -8.66495205305406801521e-01 -1.38940436149903229213e-01 -8.66495205305406801521e-01 -1.38940436149903229213e-01 -8.18961058530454782955e-03 +7.34776066031990297833e-03
2.48500000000000000000e+09 -4.64752121706940302115e-02 +1.71576532461398846563e-02 +3.49490813062201477468e-01 +8.02501691292487495666e-01 +3.49490813062201477468e-01 +8.02501691292487495666e-01 -4.64752121706940302115e-02 +1.71576532461398846563e-02
2.53000000000000000000e+09 -3.94640802837583279383e-02 -2.15868038463418350503e-02 +4.85572289908802801062e-01 -7.27016917154618136365e-01 +4.85572289908802801062e-01 -7.27016917154618136365e-01 -3.94640802837583279383e-02 -2.15868038463418350503e-02
2.57500000000000000000e+09 -7.22642262015444486467e-03 +9.09332291191410828184e-04 -8.73737710936402622863e-01 -1.70532391616536257994e-02 -8.73737710936402622863e-01 -1.70532391616536257994e-02 -7.22642262015444486467e-03 +9.09332291191410828184e-04
2.62000000000000000000e+09 -4.10581491426169134518e-02 +2.07093161104378205295e-02 +4.55604906301313727912e-01 +7.43267419328727751981e-01 +4.55604906301313727912e-01 +7.43267419328727751981e-01 -4.10581491426169134518e-02 +2.07093161104378205295e-02
2.66500000000000000000e+09 -4.49309175886686770762e-02 -1.81447901886210224975e-02 +3.78379218007981354965e-01 -7.83952115443947050721e-01 +3.78379218007981354965e-01 -7.83952115443947050721e-01 -4.49309175886686770762e-02 -1.81447901886210224975e-02
2.71000000000000000000e+09 -8.06281152783975413323e-03 -5.49217856427409827080e-03 -8.64023068342247957396e-01 +1.04150771699706767848e-01 -8.64023068342247957396e-01 +1.04150771699706767848e-01 -8.06281152783975413323e-03 -5.49217856427409827080e-03
2.75500000000000000000e+09 -3.49236093754452386895e-02 +2.26234987771863522987e-02 +5.52173722319855064811e-01 +6.70215805037182921211e-01 +5.52173722319855064811e-01 +6.70215805037182921211e-01 -3.49236093754452386895e-02 +2.26234987771863522987e-02
2.80000000000000000000e+09 -4.92074657462420322895e-02 -1.33764766324495441158e-02 +2.64878473844527173586e-01 -8.25365490961801229197e-01 +2.64878473844527173586e-01 -8.25365490961801229197e-01 -4.92074657462420322895e-02 -1.33764766324495441158e-02
2.84500000000000000000e+09 -1.06052581142488736021e-02 -1.13681965483867653682e-02 -8.37680755056471659792e-01 +2.22325266672729005002e-01 -8.37680755056471659792e-01 +2.22325266672729005002e-01 -1.06052581142488736021e-02 -1.13681965483867653682e-02
2.89000000000000000000e+09 -2.85490768436864814084e-02 +2.27793579830052883572e-02 +6.37415470723423527311e-01 +5.84815286250939592172e-01 +6.37415470723423527311e-01 +5.84815286250939592172e-01 -2.85490768436864814084e-02 +2.27793579830052883572e-02
2.93500000000000000000e+09 -5.19892881559193692498e-02 -7.66604932166817243377e-03 +1.47269242655179571910e-01 -8.50622500363775513321e-01 +1.47269242655179571910e-01 -8.50622500363775513321e-01 -5.19892881559193692498e-02 -7.66604932166817243377e-03
2.98000000000000000000e+09 -1.46313414421133658472e-02 -1.62783392424767497930e-02 -7.95368059136856930813e-01 +3.35205387937626442252e-01 -7.95368059136856930813e-01 +3.35205387937626442252e-01 -1.46313414421133658472e-02 -1.62783392424767497930e-02
3.02500000000000000000e+09 -2.24237914786933924260e-02 +2.11910871017240917680e-02 +7.09763054556713290921e-01 +4.88767378307285671468e-01 +7.09763054556713290921e-01 +4.88767378307285671468e-01 -2.24237914786933924260e-02 +2.11910871017240917680e-02
3.07000000000000000000e+09 -5.30897360884185348651e-02 -1.46221044024770832626e-03 +2.78014807490305007609e-02 -8.59389445746936764259e-01 +2.78014807490305007609e-02 -8.59389445746936764259e-01 -5.30897360884185348651e-02 -1.46221044024770832626e-03
3.11500000000000000000e+09 -1.98089920303254618528e-02 -1.98634117418262506893e-02 -7.38051306839961784867e-01 +4.40655321234213026571e-01 -7.38051306839961784867e-01 +4.40655321234213026571e-01 -1.98089920303254618528e-02 -1.98634117418262506893e-02
3.16000000000000000000e+09 -1.70115139001473063274e-02 +1.80054037686930082374e-02 +7.67897365354007876981e-01 +3.83977353520541242471e-01 +7.67897365354007876981e-01 +3.83977353520541242471e-01 -1.70115139001473063274e-02 +1.80054037686930082374e-02
3.20500000000000000000e+09 -5.24518792635160630011e-02 +4.75638436971444200640e-03 -9.12617464781907139493e-02 -8.51634377068036241276e-01 -9.12617464781907139493e-02 -8.51634377068036241276e-01 -5.24518792635160630011e-02 +4.75638436971444200640e-03
3.25000000000000000000e+09 -2.57238809500489502835e-02 -2.18714833638515571135e-02 -6.66979695531766836325e-01 +5.36710921994246747957e-01 -6.66979695531766836325e-01 +5.36710921994246747957e-01 -2.57238809500489502835e-02 -2.18714833638515571135e-02
3.29500000000000000000e+09 -1.27154420355535466292e-02 +1.34889487870118573304e-02 +8.10776975609334260575e-01 +2.72518845586150970650e-01 +8.10776975609334260575e-01 +2.72518845586150970650e-01 -1.27154420355535466292e-02 +1.34889487870118573304e-02
3.34000000000000000000e+09 -5.01507284921952414813e-02 +1.05172976296421874509e-02 -2.07681056283150616837e-01 -8.27624715661569920755e-01 -2.07681056283150616837e-01 -8.27624715661569920755e-01 -5.01507284921952414813e-02 +1.05172976296421874509e-02
3.38500000000000000000e+09 -3.19125849132181060863e-02 -2.21751575888545840454e-02 -5.83653323621563635548e-01 +6.21616186757303790245e-01 -5.83653323621563635548e-01 +6.21616186757303790245e-01 -3.19125849132181060863e-02 -2.21751575888545840454e-02
3.43000000000000000000e+09 -9.84800534350499350011e-03 +8.00654234904826615782e-03 +8.37662618451428198085e-01 +1.56592778701243384720e-01 +8.37662618451428198085e-01 +1.56592778701243384720e-01 -9.84800534350499350011e-03 +8.00654234904826615782e-03
3.47500000000000000000e+09 -4.63857537419867099748e-02 +1.53895027235839663982e-02 -3.19277038048945971394e-01 -7.87921791053884823519e-01 -3.19277038048945971394e-01 -7.87921791053884823519e-01 -4.63857537419867099748e-02 +1.53895027235839663982e-02
3.52000000000000000000e+09 -3.78987850291697125904e-02 -2.07789315608490759990e-02 -4.89787174230252753127e-01 +6.93852948028725657892e-01 -4.89787174230252753127e-01 +6.93852948028725657892e-01 -3.78987850291697125904e-02 -2.07789315608490759990e-02
3.56500000000000000000e+09 -8.60791660135132481735e-03 +1.99199923398607437949e-03 +8.48134921991259838059e-01 +3.84815851937243200154e-02 +8.48134921991259838059e-01 +3.84815851937243200154e-02 -8.60791660135132481735e-03 +1.99199923398607437949e-03
3.61000000000000000000e+09 -4.14643412584809814558e-02 +1.90151104790419432644e-02 -4.23966367612533978626e-01 -7.33372109644909508930e-01 -4.23966367612533978626e-01 -7.33372109644909508930e-01 -4.14643412584809814558e-02 +1.90151104790419432644e-02
3.65500000000000000000e+09 -4.32296319349645824515e-02 -1.78163722376260477698e-02 -3.87272747457956811878e-01 +7.52163743816561369826e-01 -3.87272747457956811878e-01 +7.52163743816561369826e-01 -4.32296319349645824515e-02 -1.78163722376260477698e-02
3.70000000000000000000e+09 -9.06629032344109450636e-03 -4.08615956520867740220e-03 +8.42104162502820718927e-01 -7.94998098960626037313e-02 +8.42104162502820718927e-01 -7.94998098960626037313e-02 -9.06629032344109450636e-03 -4.08615956520867740220e-03
3.74500000000000000000e+09 -3.57774354173654371425e-02 +2.11353830345862685192e-02 -5.19797863146291283520e-01 -6.65094863238998246224e-01 -5.19797863146291283520e-01 -6.65094863238998246224e-01 -3.57774354173654371425e-02 +2.11353830345862685192e-02
3.79000000000000000000e+09 -4.75095266082996986468e-02 -1.35376304797709054450e-02 -2.78138780539244512280e-01 +7.95568286357352549842e-01 -2.78138780539244512280e-01 +7.95568286357352549842e-01 -4.75095266082996986468e-02 -1.35376304797709054450e-02
3.83500000000000000000e+09 -1.11628850177386881176e-02 -9.76132096455854976480e-03 +8.19811281266959790415e-01 -1.95054379706244312986e-01 +8.19811281266959790415e-01 -1.95054379706244312986e-01 -1.11628850177386881176e-02 -9.76132096455854976480e-03
3.88000000000000000000e+09 -2.97691509494429039362e-02 +2.16091657923748944881e-02 -6.04988259802653582931e-01 -5.84465001443094545053e-01 -6.04988259802653582931e-01 -5.84465001443094545053e-01 -2.97691509494429039362e-02 +2.16091657923748944881e-02
3.92500000000000000000e+09 -5.04288845426026227647e-02 -8.28850833003221335038e-03 -1.64512108451957989042e-01 +8.23374266265880616622e-01 -1.64512108451957989042e-01 +8.23374266265880616622e-01 -5.04288845426026227647e-02 -8.28850833003221335038e-03
3.97000000000000000000e+09 -1.47126666261437888394e-02 -1.46047531120618249295e-02 +7.81820005961772923619e-01 -3.05952725228348432207e-01 +7.81820005961772923619e-01 -3.05952725228348432207e-01 -1.47126666261437888394e-02 -1.46047531120618249295e-02
4.01500000000000000000e+09 -2.39025883360584508186e-02 +2.04223773818362416832e-02 -6.77957073891001127386e-01 -4.93091177987432183194e-01 -6.77957073891001127386e-01 -4.93091177987432183194e-01 -2.39025883360584508186e-02 +2.04223773818362416832e-02
4.06000000000000000000e+09 -5.17859192243565052971e-02 -2.48284821630405730386e-03 -4.85792783594359012245e-02 +8.35183348859724561386e-01 -4.85792783594359012245e-02 +8.35183348859724561386e-01 -5.17859192243565052971e-02 -2.48284821630405730386e-03
4.10500000000000000000e+09 -1.94220140307996697038e-02 -1.82580593205094107723e-02 +7.29000539195795549396e-01 -4.10080157908277176393e-01 +7.29000539195795549396e-01 -4.10080157908277176393e-01 -1.94220140307996697038e-02 -1.82580593205094107723e-02
4.15000000000000000000e+09 -1.86244017824131399830e-02 +1.76878244713897375684e-02 -7.37359529088135290387e-01 -3.92788053143134863188e-01 -7.37359529088135290387e-01 -3.92788053143134863188e-01 -1.86244017824131399830e-02 +1.76878244713897375684e-02
4.19500000000000000000e+09 -5.15000463401251717954e-02 +3.42959223666682369580e-03 +6.74508800518215656528e-02 +8.30893152875300078364e-01 +6.74508800518215656528e-02 +8.30893152875300078364e-01 -5.15000463401251717954e-02 +3.42959223666682369580e-03
4.24000000000000000000e+09 -2.49130892037013398910e-02 -2.04595869559080871525e-02 +6.62505830496743275404e-01 -5.05479419562666620891e-01 +6.62505830496743275404e-01 -5.05479419562666620891e-01 -2.49130892037013398910e-02 -2.04595869559080871525e-02
4.28500000000000000000e+09 -1.43308150203761835995e-02 +1.36353237062281640313e-02 -7.82116204018634686435e-01 -2.85542777575238271304e-01 -7.82116204018634686435e-01 -2.85542777575238271304e-01 -1.43308150203761835995e-02 +1.36353237062281640313e-02
4.33000000000000000000e+09 -4.96161273131539987125e-02 +8.99738136665005280856e-03 +1.81383840532213458374e-01 +8.10695782347169768833e-01 +1.81383840532213458374e-01 +8.10695782347169768833e-01 -4.96161273131539987125e-02 +8.99738136665005280856e-03
4.37500000000000000000e+09 -3.07542565259764019703e-02 -2.10628373046159375614e-02 +5.83741854217480593547e-01 -5.90387765307754497357e-01 +5.83741854217480593547e-01 -5.90387765307754497357e-01 -3.07542565259764019703e-02 -2.10628373046159375614e-02
4.42000000000000000000e+09 -1.13377209036983547796e-02 +8.59286914097263584966e-03 -8.11437898609450924958e-01 -1.73475951655573529253e-01 -8.11437898609450924958e-01 -1.73475951655573529253e-01 -1.13377209036983547796e-02 +8.59286914097263584966e-03
4.46500000000000000000e+09 -4.62994043415584088930e-02 +1.38012907368335446118e-02 +2.91075403361398088453e-01 +7.75073166452336259624e-01 +2.91075403361398088453e-01 +7.75073166452336259624e-01 -4.62994043415584088930e-02 +1.38012907368335446118e-02
4.51000000000000000000e+09 -3.64940145940266941205e-02 -2.00456414937550848887e-02 +4.94333523506117256119e-01 -6.63267671863180474645e-01 +4.94333523506117256119e-01 -6.63267671863180474645e-01 -3.64940145940266941205e-02 -2.00456414937550848887e-02
